!Agilent Technologies,N5230A,US44240068,A.07.50.67
!Agilent N5230A: A.07.50.67
!Date: Wednesday, November 10, 2021 19:11:51
!Correction: S11(Full 2 Port(1,2)) 
!S21(Full 2 Port(1,2)) 
!S12(Full 2 Port(1,2)) 
!S22(Full 2 Port(1,2)) 
!S2P File: Measurements: S11, S21, S12, S22:
# Hz S  dB   R 50
300000 -7.835566e+000 -4.671507e+000 2.437832e+001 -1.797939e+002 -3.011970e+001 4.188364e+000 -6.521159e+000 2.439011e+000
440540.625 -7.586534e+000 -4.952480e+000 2.410507e+001 1.767323e+002 -3.045949e+001 2.353691e+000 -6.003798e+000 -9.112635e+000
581081.25 -7.592503e+000 -7.199414e+000 2.420160e+001 1.763574e+002 -3.031694e+001 3.598929e+000 -5.557122e+000 -1.307247e+001
721621.875 -7.609606e+000 -8.839170e+000 2.426373e+001 1.767298e+002 -3.007440e+001 6.030273e+000 -5.418337e+000 -1.404238e+001
862162.5 -7.740275e+000 -1.055817e+001 2.441589e+001 1.768803e+002 -2.990071e+001 8.077811e+000 -5.398585e+000 -1.344928e+001
1002703.125 -7.936011e+000 -1.163651e+001 2.453209e+001 1.772012e+002 -2.975307e+001 9.817962e+000 -5.462265e+000 -1.163089e+001
1143243.75 -8.107229e+000 -1.221793e+001 2.458770e+001 1.775198e+002 -2.960498e+001 1.243486e+001 -5.567153e+000 -8.847993e+000
1283784.375 -8.243752e+000 -1.297583e+001 2.460057e+001 1.774982e+002 -2.939694e+001 1.322749e+001 -5.845491e+000 -5.580949e+000
1424325 -8.239049e+000 -1.436920e+001 2.460051e+001 1.769227e+002 -2.932578e+001 1.440005e+001 -5.800467e+000 -7.278026e+000
1564865.625 -8.275630e+000 -1.572676e+001 2.461434e+001 1.764339e+002 -2.913485e+001 1.552254e+001 -5.751982e+000 -8.729278e+000
1705406.25 -8.305772e+000 -1.702405e+001 2.459388e+001 1.759637e+002 -2.901244e+001 1.634874e+001 -5.747239e+000 -9.965152e+000
1845946.875 -8.339879e+000 -1.818870e+001 2.459138e+001 1.755842e+002 -2.890616e+001 1.722564e+001 -5.747855e+000 -1.090463e+001
1986487.5 -8.389797e+000 -1.927737e+001 2.456875e+001 1.752820e+002 -2.874208e+001 1.814506e+001 -5.766972e+000 -1.165716e+001
2127028.125 -8.426570e+000 -2.034002e+001 2.455201e+001 1.749378e+002 -2.862872e+001 1.898912e+001 -5.798050e+000 -1.236870e+001
2267568.75 -8.465228e+000 -2.152187e+001 2.452859e+001 1.745163e+002 -2.845412e+001 1.990259e+001 -5.786993e+000 -1.349004e+001
2408109.375 -8.495358e+000 -2.291519e+001 2.451521e+001 1.742065e+002 -2.834412e+001 2.025443e+001 -5.816283e+000 -1.466227e+001
2548650 -8.524198e+000 -2.406264e+001 2.451229e+001 1.737354e+002 -2.814338e+001 2.125047e+001 -5.792169e+000 -1.587334e+001
2689190.625 -8.587960e+000 -2.523498e+001 2.446146e+001 1.734384e+002 -2.803076e+001 2.154363e+001 -5.830333e+000 -1.687719e+001
2829731.25 -8.620664e+000 -2.647606e+001 2.444201e+001 1.730775e+002 -2.790932e+001 2.215737e+001 -5.849892e+000 -1.791550e+001
2970271.875 -8.656785e+000 -2.761786e+001 2.441632e+001 1.727832e+002 -2.773021e+001 2.290460e+001 -5.873224e+000 -1.885308e+001
3110812.5 -8.714954e+000 -2.877187e+001 2.438885e+001 1.724796e+002 -2.761640e+001 2.296840e+001 -5.915024e+000 -1.978639e+001
3251353.125 -8.749652e+000 -3.005466e+001 2.437154e+001 1.720844e+002 -2.750016e+001 2.350515e+001 -5.948987e+000 -2.085610e+001
3391893.75 -8.799242e+000 -3.123007e+001 2.434966e+001 1.718105e+002 -2.737247e+001 2.363471e+001 -5.964762e+000 -2.197488e+001
3532434.375 -8.857755e+000 -3.244692e+001 2.432615e+001 1.714875e+002 -2.717911e+001 2.389137e+001 -6.045569e+000 -2.296365e+001
3672975 -8.914134e+000 -3.344409e+001 2.428527e+001 1.712039e+002 -2.710093e+001 2.424537e+001 -6.115579e+000 -2.403822e+001
3813515.625 -8.946610e+000 -3.463272e+001 2.426248e+001 1.709104e+002 -2.695530e+001 2.453403e+001 -6.110025e+000 -2.481390e+001
3954056.25 -8.995869e+000 -3.581960e+001 2.420993e+001 1.706509e+002 -2.682364e+001 2.470134e+001 -6.155313e+000 -2.592789e+001
4094596.875 -9.054101e+000 -3.685232e+001 2.417415e+001 1.704032e+002 -2.674109e+001 2.511469e+001 -6.192582e+000 -2.684469e+001
4235137.5 -9.108924e+000 -3.801067e+001 2.416090e+001 1.700695e+002 -2.658982e+001 2.509617e+001 -6.222627e+000 -2.778376e+001
4375678.125 -9.163997e+000 -3.912402e+001 2.412333e+001 1.698131e+002 -2.649813e+001 2.520489e+001 -6.274731e+000 -2.868109e+001
4516218.75 -9.220654e+000 -4.018082e+001 2.408778e+001 1.695580e+002 -2.638805e+001 2.543609e+001 -6.330471e+000 -2.964935e+001
4656759.375 -9.275590e+000 -4.128444e+001 2.404819e+001 1.693094e+002 -2.621924e+001 2.535807e+001 -6.381819e+000 -3.053052e+001
4797300 -9.333688e+000 -4.232357e+001 2.401356e+001 1.690435e+002 -2.617706e+001 2.546082e+001 -6.440812e+000 -3.141395e+001
4937840.625 -9.388824e+000 -4.339784e+001 2.397727e+001 1.688134e+002 -2.600988e+001 2.550577e+001 -6.491678e+000 -3.228662e+001
5078381.25 -9.444133e+000 -4.439351e+001 2.394386e+001 1.685980e+002 -2.592326e+001 2.551825e+001 -6.550413e+000 -3.322993e+001
5218921.875 -9.503885e+000 -4.538954e+001 2.390828e+001 1.683740e+002 -2.582393e+001 2.547446e+001 -6.601629e+000 -3.406278e+001
5359462.5 -9.556213e+000 -4.637203e+001 2.387625e+001 1.681677e+002 -2.573448e+001 2.525296e+001 -6.658491e+000 -3.499034e+001
5500003.125 -9.614497e+000 -4.735681e+001 2.383854e+001 1.679653e+002 -2.562038e+001 2.572029e+001 -6.720579e+000 -3.579480e+001
5640543.75 -9.667857e+000 -4.841288e+001 2.380530e+001 1.677601e+002 -2.552510e+001 2.553407e+001 -6.779984e+000 -3.664302e+001
5781084.375 -9.732684e+000 -4.937144e+001 2.374734e+001 1.676348e+002 -2.544999e+001 2.512907e+001 -6.846438e+000 -3.745856e+001
5921625 -9.800635e+000 -5.035521e+001 2.371022e+001 1.674526e+002 -2.536451e+001 2.525825e+001 -6.912022e+000 -3.823148e+001
6062165.625 -9.857772e+000 -5.128967e+001 2.367123e+001 1.672544e+002 -2.528444e+001 2.517194e+001 -6.977030e+000 -3.907785e+001
6202706.25 -9.920959e+000 -5.232515e+001 2.365556e+001 1.670429e+002 -2.516139e+001 2.495271e+001 -7.024047e+000 -3.981758e+001
6343246.875 -9.984816e+000 -5.330127e+001 2.361586e+001 1.668872e+002 -2.508138e+001 2.494883e+001 -7.091056e+000 -4.059095e+001
6483787.5 -1.004541e+001 -5.418977e+001 2.357834e+001 1.667450e+002 -2.503327e+001 2.484805e+001 -7.156374e+000 -4.136160e+001
6624328.125 -1.010188e+001 -5.513517e+001 2.354224e+001 1.665872e+002 -2.500093e+001 2.485990e+001 -7.223106e+000 -4.214415e+001
6764868.75 -1.016770e+001 -5.604255e+001 2.350450e+001 1.664668e+002 -2.486660e+001 2.460978e+001 -7.285087e+000 -4.283937e+001
6905409.375 -1.022671e+001 -5.697629e+001 2.346756e+001 1.663262e+002 -2.476659e+001 2.445741e+001 -7.344629e+000 -4.355250e+001
7045950 -1.028135e+001 -5.780709e+001 2.343442e+001 1.661861e+002 -2.474345e+001 2.439643e+001 -7.415248e+000 -4.430523e+001
7186490.625 -1.034285e+001 -5.870296e+001 2.340029e+001 1.660704e+002 -2.462667e+001 2.406883e+001 -7.471996e+000 -4.500186e+001
7327031.25 -1.040608e+001 -5.955903e+001 2.336515e+001 1.659705e+002 -2.462962e+001 2.407132e+001 -7.545143e+000 -4.569732e+001
7467571.875 -1.045369e+001 -6.036634e+001 2.333118e+001 1.658421e+002 -2.452043e+001 2.388913e+001 -7.599308e+000 -4.638202e+001
7608112.5 -1.052218e+001 -6.117114e+001 2.329467e+001 1.657559e+002 -2.448365e+001 2.356161e+001 -7.673824e+000 -4.708501e+001
7748653.125 -1.058093e+001 -6.203242e+001 2.323730e+001 1.656905e+002 -2.439284e+001 2.354779e+001 -7.753358e+000 -4.773939e+001
7889193.75 -1.065036e+001 -6.282347e+001 2.320045e+001 1.655973e+002 -2.433686e+001 2.336084e+001 -7.815128e+000 -4.841106e+001
8029734.375 -1.069742e+001 -6.362933e+001 2.316589e+001 1.655074e+002 -2.427345e+001 2.327395e+001 -7.885731e+000 -4.906464e+001
8170275 -1.076708e+001 -6.446046e+001 2.313101e+001 1.654132e+002 -2.425319e+001 2.298403e+001 -7.947419e+000 -4.971698e+001
8310815.625 -1.081801e+001 -6.525749e+001 2.309632e+001 1.653385e+002 -2.417354e+001 2.299957e+001 -8.010070e+000 -5.031849e+001
8451356.25 -1.088536e+001 -6.607401e+001 2.306026e+001 1.652562e+002 -2.413633e+001 2.247724e+001 -8.074182e+000 -5.095317e+001
8591896.875 -1.094123e+001 -6.679991e+001 2.302750e+001 1.651895e+002 -2.404739e+001 2.260638e+001 -8.143426e+000 -5.156617e+001
8732437.5 -1.100572e+001 -6.766039e+001 2.299499e+001 1.651232e+002 -2.401467e+001 2.232494e+001 -8.208988e+000 -5.215680e+001
8872978.125 -1.107741e+001 -6.831127e+001 2.295433e+001 1.650492e+002 -2.398166e+001 2.226736e+001 -8.284383e+000 -5.274346e+001
9013518.75 -1.113320e+001 -6.902689e+001 2.292043e+001 1.649981e+002 -2.393204e+001 2.217235e+001 -8.355951e+000 -5.337778e+001
9154059.375 -1.119398e+001 -6.986266e+001 2.288420e+001 1.649400e+002 -2.387430e+001 2.188822e+001 -8.415288e+000 -5.392913e+001
9294600 -1.126274e+001 -7.060140e+001 2.285158e+001 1.648806e+002 -2.386733e+001 2.173308e+001 -8.487936e+000 -5.453861e+001
9435140.625 -1.130600e+001 -7.133629e+001 2.282542e+001 1.648643e+002 -2.381253e+001 2.163709e+001 -8.549036e+000 -5.509747e+001
9575681.25 -1.136299e+001 -7.208401e+001 2.279653e+001 1.648115e+002 -2.374572e+001 2.127152e+001 -8.609692e+000 -5.569843e+001
9716221.875 -1.141299e+001 -7.282438e+001 2.277150e+001 1.647482e+002 -2.369655e+001 2.122819e+001 -8.670521e+000 -5.626351e+001
9856762.5 -1.146200e+001 -7.359445e+001 2.274815e+001 1.646517e+002 -2.367749e+001 2.109381e+001 -8.732948e+000 -5.692175e+001
9997303.125 -1.151050e+001 -7.433770e+001 2.272755e+001 1.645516e+002 -2.362352e+001 2.094927e+001 -8.784060e+000 -5.753403e+001
10137843.75 -1.160469e+001 -7.486102e+001 2.267150e+001 1.648306e+002 -2.359947e+001 2.066625e+001 -8.907638e+000 -5.769713e+001
10278384.375 -1.163844e+001 -7.551854e+001 2.265009e+001 1.647333e+002 -2.354047e+001 2.046597e+001 -8.964200e+000 -5.828522e+001
10418925 -1.169529e+001 -7.619949e+001 2.262558e+001 1.646554e+002 -2.357483e+001 2.045650e+001 -9.037148e+000 -5.884113e+001
10559465.625 -1.173335e+001 -7.695409e+001 2.260413e+001 1.645940e+002 -2.348661e+001 2.021583e+001 -9.084043e+000 -5.940588e+001
10700006.25 -1.180780e+001 -7.760620e+001 2.257523e+001 1.645349e+002 -2.347331e+001 1.995777e+001 -9.145617e+000 -5.996857e+001
10840546.875 -1.185598e+001 -7.829830e+001 2.255150e+001 1.645165e+002 -2.343064e+001 1.993918e+001 -9.208263e+000 -6.040563e+001
10981087.5 -1.190510e+001 -7.893767e+001 2.252560e+001 1.644972e+002 -2.337311e+001 1.956543e+001 -9.265792e+000 -6.091428e+001
11121628.125 -1.195611e+001 -7.958986e+001 2.250069e+001 1.644896e+002 -2.336427e+001 1.944515e+001 -9.328041e+000 -6.141950e+001
11262168.75 -1.201179e+001 -8.030090e+001 2.247483e+001 1.644626e+002 -2.333827e+001 1.937848e+001 -9.395755e+000 -6.183754e+001
11402709.375 -1.208018e+001 -8.094340e+001 2.244233e+001 1.644757e+002 -2.331337e+001 1.903318e+001 -9.463573e+000 -6.235471e+001
11543250 -1.212719e+001 -8.142606e+001 2.241275e+001 1.644463e+002 -2.327674e+001 1.915138e+001 -9.531729e+000 -6.276810e+001
11683790.625 -1.217529e+001 -8.198505e+001 2.238157e+001 1.644561e+002 -2.328311e+001 1.893060e+001 -9.615684e+000 -6.335636e+001
11824331.25 -1.220279e+001 -8.246718e+001 2.234963e+001 1.644632e+002 -2.323006e+001 1.873442e+001 -9.713825e+000 -6.388124e+001
11964871.875 -1.223352e+001 -8.305987e+001 2.232288e+001 1.645057e+002 -2.319333e+001 1.865951e+001 -9.804651e+000 -6.416995e+001
12105412.5 -1.227027e+001 -8.368683e+001 2.230281e+001 1.645170e+002 -2.320754e+001 1.859956e+001 -9.865441e+000 -6.448335e+001
12245953.125 -1.230594e+001 -8.441880e+001 2.228256e+001 1.645174e+002 -2.316034e+001 1.846192e+001 -9.923491e+000 -6.487574e+001
12386493.75 -1.235274e+001 -8.520217e+001 2.226359e+001 1.644814e+002 -2.311316e+001 1.807816e+001 -9.967086e+000 -6.525663e+001
12527034.375 -1.247281e+001 -8.554442e+001 2.223489e+001 1.644561e+002 -2.308931e+001 1.785461e+001 -9.967462e+000 -6.600677e+001
12667575 -1.251422e+001 -8.604864e+001 2.221309e+001 1.644385e+002 -2.306215e+001 1.781076e+001 -1.001728e+001 -6.645210e+001
12808115.625 -1.255825e+001 -8.663535e+001 2.218960e+001 1.644283e+002 -2.307176e+001 1.767160e+001 -1.008393e+001 -6.695831e+001
12948656.25 -1.259762e+001 -8.726077e+001 2.216891e+001 1.644042e+002 -2.301118e+001 1.719075e+001 -1.014153e+001 -6.738196e+001
13089196.875 -1.266197e+001 -8.775855e+001 2.214983e+001 1.645454e+002 -2.299668e+001 1.739072e+001 -1.019207e+001 -6.758566e+001
13229737.5 -1.269580e+001 -8.825265e+001 2.212636e+001 1.645337e+002 -2.300067e+001 1.743861e+001 -1.026119e+001 -6.795959e+001
13370278.125 -1.274448e+001 -8.888044e+001 2.210342e+001 1.645152e+002 -2.297160e+001 1.697748e+001 -1.032122e+001 -6.846725e+001
13510818.75 -1.278411e+001 -8.935648e+001 2.208282e+001 1.645474e+002 -2.298333e+001 1.687039e+001 -1.038488e+001 -6.890231e+001
13651359.375 -1.283447e+001 -8.985674e+001 2.206000e+001 1.645592e+002 -2.295164e+001 1.666312e+001 -1.044641e+001 -6.929675e+001
13791900 -1.287756e+001 -9.038665e+001 2.203932e+001 1.645717e+002 -2.289603e+001 1.669472e+001 -1.050238e+001 -6.968980e+001
13932440.625 -1.293970e+001 -9.080698e+001 2.201563e+001 1.645984e+002 -2.291212e+001 1.650921e+001 -1.056877e+001 -7.004342e+001
14072981.25 -1.295745e+001 -9.132639e+001 2.199806e+001 1.646169e+002 -2.282940e+001 1.648484e+001 -1.062491e+001 -7.042466e+001
14213521.875 -1.300762e+001 -9.180595e+001 2.197716e+001 1.646273e+002 -2.285795e+001 1.610524e+001 -1.068125e+001 -7.078141e+001
14354062.5 -1.304974e+001 -9.234539e+001 2.195879e+001 1.646672e+002 -2.279758e+001 1.603270e+001 -1.074037e+001 -7.116267e+001
14494603.125 -1.309353e+001 -9.293732e+001 2.193999e+001 1.646722e+002 -2.279861e+001 1.608092e+001 -1.079341e+001 -7.151132e+001
14635143.75 -1.313620e+001 -9.344406e+001 2.192295e+001 1.646916e+002 -2.277786e+001 1.580569e+001 -1.084913e+001 -7.191533e+001
14775684.375 -1.317889e+001 -9.397507e+001 2.190475e+001 1.647046e+002 -2.277347e+001 1.565917e+001 -1.090222e+001 -7.225002e+001
14916225 -1.321770e+001 -9.451340e+001 2.189130e+001 1.647082e+002 -2.277847e+001 1.564556e+001 -1.095159e+001 -7.261547e+001
15056765.625 -1.326159e+001 -9.499200e+001 2.187170e+001 1.647453e+002 -2.277839e+001 1.550699e+001 -1.101607e+001 -7.298824e+001
15197306.25 -1.330244e+001 -9.548527e+001 2.185205e+001 1.647426e+002 -2.276007e+001 1.553831e+001 -1.106777e+001 -7.335508e+001
15337846.875 -1.335018e+001 -9.591133e+001 2.183522e+001 1.647834e+002 -2.272003e+001 1.501355e+001 -1.111029e+001 -7.368144e+001
15478387.5 -1.338332e+001 -9.638878e+001 2.181513e+001 1.647978e+002 -2.273403e+001 1.508835e+001 -1.117640e+001 -7.403931e+001
15618928.125 -1.344042e+001 -9.680036e+001 2.179396e+001 1.648385e+002 -2.270792e+001 1.497369e+001 -1.123273e+001 -7.438434e+001
15759468.75 -1.347963e+001 -9.720338e+001 2.177826e+001 1.648713e+002 -2.266959e+001 1.479141e+001 -1.128231e+001 -7.471062e+001
15900009.375 -1.350809e+001 -9.766672e+001 2.176052e+001 1.649039e+002 -2.264674e+001 1.476534e+001 -1.134198e+001 -7.505419e+001
16040550 -1.354550e+001 -9.804110e+001 2.174312e+001 1.649350e+002 -2.266032e+001 1.459308e+001 -1.138824e+001 -7.549667e+001
16181090.625 -1.357456e+001 -9.843629e+001 2.172687e+001 1.649740e+002 -2.265935e+001 1.457782e+001 -1.144746e+001 -7.572318e+001
16321631.25 -1.361915e+001 -9.890483e+001 2.170886e+001 1.649949e+002 -2.263960e+001 1.454155e+001 -1.149962e+001 -7.608849e+001
16462171.875 -1.365734e+001 -9.935972e+001 2.169371e+001 1.650297e+002 -2.262499e+001 1.429503e+001 -1.155305e+001 -7.636217e+001
16602712.5 -1.369820e+001 -9.987472e+001 2.167812e+001 1.650590e+002 -2.260682e+001 1.410291e+001 -1.160772e+001 -7.673740e+001
16743253.125 -1.372795e+001 -1.003009e+002 2.166318e+001 1.650702e+002 -2.260236e+001 1.414090e+001 -1.165548e+001 -7.701330e+001
16883793.75 -1.375543e+001 -1.006936e+002 2.164970e+001 1.651120e+002 -2.258784e+001 1.407717e+001 -1.170704e+001 -7.732167e+001
17024334.375 -1.379488e+001 -1.011915e+002 2.163367e+001 1.651323e+002 -2.257591e+001 1.368775e+001 -1.175697e+001 -7.764153e+001
17164875 -1.382423e+001 -1.015568e+002 2.161856e+001 1.651758e+002 -2.256823e+001 1.388108e+001 -1.181481e+001 -7.793520e+001
17305415.625 -1.384789e+001 -1.019673e+002 2.160409e+001 1.651886e+002 -2.253849e+001 1.370924e+001 -1.186004e+001 -7.825245e+001
17445956.25 -1.389140e+001 -1.024276e+002 2.159026e+001 1.652273e+002 -2.254408e+001 1.327573e+001 -1.189616e+001 -7.863781e+001
17586496.875 -1.392097e+001 -1.027662e+002 2.157486e+001 1.652618e+002 -2.252267e+001 1.340978e+001 -1.194622e+001 -7.884518e+001
17727037.5 -1.395655e+001 -1.032441e+002 2.156127e+001 1.652749e+002 -2.250957e+001 1.318205e+001 -1.199603e+001 -7.919505e+001
17867578.125 -1.398508e+001 -1.035813e+002 2.154947e+001 1.653323e+002 -2.250504e+001 1.350869e+001 -1.205091e+001 -7.941375e+001
18008118.75 -1.401920e+001 -1.040359e+002 2.153712e+001 1.653547e+002 -2.249800e+001 1.308834e+001 -1.210378e+001 -7.970172e+001
18148659.375 -1.405000e+001 -1.044622e+002 2.152281e+001 1.653853e+002 -2.246892e+001 1.285446e+001 -1.213406e+001 -7.998705e+001
18289200 -1.407740e+001 -1.048562e+002 2.151102e+001 1.654068e+002 -2.249823e+001 1.297646e+001 -1.218902e+001 -8.037647e+001
18429740.625 -1.411928e+001 -1.052111e+002 2.149800e+001 1.654382e+002 -2.248540e+001 1.275496e+001 -1.223610e+001 -8.056216e+001
18570281.25 -1.415689e+001 -1.056493e+002 2.148283e+001 1.654557e+002 -2.244703e+001 1.277026e+001 -1.228483e+001 -8.081406e+001
18710821.875 -1.418505e+001 -1.060497e+002 2.147069e+001 1.654829e+002 -2.247016e+001 1.263674e+001 -1.234237e+001 -8.111900e+001
18851362.5 -1.422264e+001 -1.064668e+002 2.145880e+001 1.655051e+002 -2.243299e+001 1.248888e+001 -1.239198e+001 -8.142685e+001
18991903.125 -1.425669e+001 -1.068264e+002 2.144682e+001 1.655461e+002 -2.243578e+001 1.252006e+001 -1.243449e+001 -8.166868e+001
19132443.75 -1.429806e+001 -1.071453e+002 2.143356e+001 1.655803e+002 -2.241937e+001 1.250225e+001 -1.247810e+001 -8.190234e+001
19272984.375 -1.430941e+001 -1.075728e+002 2.142653e+001 1.656006e+002 -2.242750e+001 1.213328e+001 -1.251781e+001 -8.226410e+001
19413525 -1.435734e+001 -1.078644e+002 2.141161e+001 1.656312e+002 -2.244521e+001 1.225628e+001 -1.257170e+001 -8.255712e+001
19554065.625 -1.438663e+001 -1.081245e+002 2.140236e+001 1.656576e+002 -2.241095e+001 1.201157e+001 -1.261294e+001 -8.283949e+001
19694606.25 -1.440312e+001 -1.085963e+002 2.138915e+001 1.656889e+002 -2.238350e+001 1.198861e+001 -1.265899e+001 -8.311086e+001
19835146.875 -1.445032e+001 -1.089430e+002 2.137677e+001 1.657113e+002 -2.237161e+001 1.188553e+001 -1.271318e+001 -8.340118e+001
19975687.5 -1.446908e+001 -1.092957e+002 2.136761e+001 1.657351e+002 -2.238446e+001 1.177037e+001 -1.275319e+001 -8.364281e+001
20116228.125 -1.449182e+001 -1.096669e+002 2.135761e+001 1.657733e+002 -2.235701e+001 1.170830e+001 -1.278651e+001 -8.393516e+001
20256768.75 -1.452048e+001 -1.100416e+002 2.134554e+001 1.658099e+002 -2.236049e+001 1.155085e+001 -1.284361e+001 -8.419514e+001
20397309.375 -1.453245e+001 -1.104936e+002 2.133651e+001 1.658553e+002 -2.236136e+001 1.145915e+001 -1.287237e+001 -8.439274e+001
20537850 -1.455968e+001 -1.107856e+002 2.132517e+001 1.658767e+002 -2.236498e+001 1.134500e+001 -1.291953e+001 -8.467631e+001
20678390.625 -1.459824e+001 -1.111241e+002 2.131600e+001 1.659216e+002 -2.235394e+001 1.128609e+001 -1.297184e+001 -8.497441e+001
20818931.25 -1.460356e+001 -1.116351e+002 2.130632e+001 1.659270e+002 -2.232748e+001 1.114821e+001 -1.300004e+001 -8.517501e+001
20959471.875 -1.464509e+001 -1.118419e+002 2.129454e+001 1.659665e+002 -2.233847e+001 1.102035e+001 -1.304522e+001 -8.543879e+001
21100012.5 -1.468039e+001 -1.121909e+002 2.128623e+001 1.660078e+002 -2.234063e+001 1.099333e+001 -1.308749e+001 -8.573597e+001
21240553.125 -1.469394e+001 -1.124790e+002 2.127496e+001 1.660300e+002 -2.232652e+001 1.089906e+001 -1.312697e+001 -8.600679e+001
21381093.75 -1.471945e+001 -1.127927e+002 2.126758e+001 1.660527e+002 -2.229892e+001 1.103625e+001 -1.317353e+001 -8.622166e+001
21521634.375 -1.475100e+001 -1.131754e+002 2.125806e+001 1.660912e+002 -2.229962e+001 1.066621e+001 -1.322518e+001 -8.648463e+001
21662175 -1.476467e+001 -1.134500e+002 2.124910e+001 1.660938e+002 -2.228329e+001 1.082221e+001 -1.325683e+001 -8.666541e+001
