!Agilent Technologies,N5230A,US44240068,A.07.50.67
!Agilent N5230A: A.07.50.67
!Date: Wednesday, November 10, 2021 19:12:37
!Correction: S11(Full 2 Port(1,2)) 
!S21(Full 2 Port(1,2)) 
!S12(Full 2 Port(1,2)) 
!S22(Full 2 Port(1,2)) 
!S2P File: Measurements: S11, S21, S12, S22:
# Hz S  dB   R 50
125000000 -1.862100e+001 1.792931e+002 2.027046e+001 1.631058e+002 -2.194895e+001 -6.910303e+000 -1.907743e+001 -1.359488e+002
125039062.5 -1.862036e+001 1.793458e+002 2.027035e+001 1.631117e+002 -2.194876e+001 -6.973808e+000 -1.906669e+001 -1.359760e+002
125078125 -1.863297e+001 1.794141e+002 2.026834e+001 1.630996e+002 -2.195282e+001 -6.960288e+000 -1.907780e+001 -1.358511e+002
125117187.5 -1.864076e+001 1.794485e+002 2.027066e+001 1.631021e+002 -2.196638e+001 -7.000935e+000 -1.905999e+001 -1.359892e+002
125156250 -1.864475e+001 1.793638e+002 2.026685e+001 1.630931e+002 -2.196492e+001 -7.092227e+000 -1.905638e+001 -1.359492e+002
125195312.5 -1.863553e+001 1.795158e+002 2.026775e+001 1.630855e+002 -2.195844e+001 -6.869503e+000 -1.905992e+001 -1.360355e+002
125234375 -1.864322e+001 1.794615e+002 2.026900e+001 1.630997e+002 -2.196821e+001 -6.982029e+000 -1.906798e+001 -1.359447e+002
125273437.5 -1.865086e+001 1.793036e+002 2.027068e+001 1.630820e+002 -2.195016e+001 -7.054584e+000 -1.906303e+001 -1.359443e+002
125312500 -1.864489e+001 1.793985e+002 2.026659e+001 1.630907e+002 -2.196486e+001 -7.007666e+000 -1.905071e+001 -1.359179e+002
125351562.5 -1.864387e+001 1.793410e+002 2.026741e+001 1.630838e+002 -2.196463e+001 -6.997002e+000 -1.904560e+001 -1.359381e+002
125390625 -1.864225e+001 1.793851e+002 2.026672e+001 1.630869e+002 -2.194877e+001 -6.873543e+000 -1.905563e+001 -1.359851e+002
125429687.5 -1.863618e+001 1.794348e+002 2.026735e+001 1.630762e+002 -2.193868e+001 -7.019007e+000 -1.907718e+001 -1.359752e+002
125468750 -1.865005e+001 1.794279e+002 2.026624e+001 1.630622e+002 -2.195197e+001 -7.006951e+000 -1.906441e+001 -1.359934e+002
125507812.5 -1.865002e+001 1.793762e+002 2.026695e+001 1.630663e+002 -2.193935e+001 -7.087521e+000 -1.905560e+001 -1.360090e+002
125546875 -1.865769e+001 1.793578e+002 2.026595e+001 1.630708e+002 -2.195433e+001 -7.110489e+000 -1.906610e+001 -1.358869e+002
125585937.5 -1.864185e+001 1.793871e+002 2.026662e+001 1.630611e+002 -2.194880e+001 -6.939149e+000 -1.905848e+001 -1.360602e+002
125625000 -1.865893e+001 1.794725e+002 2.026594e+001 1.630612e+002 -2.195703e+001 -6.873525e+000 -1.904741e+001 -1.360583e+002
125664062.5 -1.866942e+001 1.794773e+002 2.026572e+001 1.630572e+002 -2.195031e+001 -6.981823e+000 -1.906133e+001 -1.359702e+002
125703125 -1.864538e+001 1.793770e+002 2.026487e+001 1.630581e+002 -2.194946e+001 -6.932364e+000 -1.906046e+001 -1.359848e+002
125742187.5 -1.865597e+001 1.793581e+002 2.026573e+001 1.630478e+002 -2.195045e+001 -6.933496e+000 -1.906128e+001 -1.360052e+002
125781250 -1.867752e+001 1.794207e+002 2.026488e+001 1.630532e+002 -2.195873e+001 -6.958734e+000 -1.904396e+001 -1.360842e+002
125820312.5 -1.866304e+001 1.793810e+002 2.026627e+001 1.630416e+002 -2.195106e+001 -7.020532e+000 -1.905434e+001 -1.359077e+002
125859375 -1.866677e+001 1.795199e+002 2.026567e+001 1.630454e+002 -2.195748e+001 -7.066942e+000 -1.905743e+001 -1.359402e+002
125898437.5 -1.865441e+001 1.794143e+002 2.026623e+001 1.630489e+002 -2.195907e+001 -6.941323e+000 -1.905620e+001 -1.359308e+002
125937500 -1.866577e+001 1.795113e+002 2.026409e+001 1.630350e+002 -2.195954e+001 -7.015243e+000 -1.905340e+001 -1.361100e+002
125976562.5 -1.867299e+001 1.794547e+002 2.026652e+001 1.630280e+002 -2.196450e+001 -6.998220e+000 -1.906128e+001 -1.360282e+002
126015625 -1.866743e+001 1.793629e+002 2.026552e+001 1.630244e+002 -2.195858e+001 -6.967040e+000 -1.905973e+001 -1.360872e+002
126054687.5 -1.866566e+001 1.793261e+002 2.026535e+001 1.630449e+002 -2.193903e+001 -7.068800e+000 -1.907167e+001 -1.359834e+002
126093750 -1.866055e+001 1.793044e+002 2.026262e+001 1.630292e+002 -2.195827e+001 -7.072061e+000 -1.905851e+001 -1.360102e+002
126132812.5 -1.867262e+001 1.794114e+002 2.026552e+001 1.630401e+002 -2.196745e+001 -6.974606e+000 -1.907021e+001 -1.361380e+002
126171875 -1.865642e+001 1.793212e+002 2.026611e+001 1.630147e+002 -2.193748e+001 -7.035161e+000 -1.908061e+001 -1.360706e+002
126210937.5 -1.866098e+001 1.794353e+002 2.026554e+001 1.630231e+002 -2.193438e+001 -6.923819e+000 -1.908527e+001 -1.361357e+002
126250000 -1.865482e+001 1.793181e+002 2.026520e+001 1.630170e+002 -2.193219e+001 -6.959349e+000 -1.908912e+001 -1.360911e+002
126289062.5 -1.867427e+001 1.793359e+002 2.026725e+001 1.630186e+002 -2.195711e+001 -7.150627e+000 -1.909039e+001 -1.359897e+002
126328125 -1.865146e+001 1.792488e+002 2.026552e+001 1.630183e+002 -2.193798e+001 -6.954397e+000 -1.909292e+001 -1.361005e+002
126367187.5 -1.867070e+001 1.791814e+002 2.026630e+001 1.630148e+002 -2.195555e+001 -7.156677e+000 -1.909133e+001 -1.360148e+002
126406250 -1.866372e+001 1.793152e+002 2.026822e+001 1.630079e+002 -2.194521e+001 -6.977718e+000 -1.909597e+001 -1.360390e+002
126445312.5 -1.866691e+001 1.793613e+002 2.026818e+001 1.629962e+002 -2.196812e+001 -7.005598e+000 -1.908247e+001 -1.359757e+002
126484375 -1.866726e+001 1.793551e+002 2.026741e+001 1.629867e+002 -2.196595e+001 -6.948898e+000 -1.908844e+001 -1.361348e+002
126523437.5 -1.866529e+001 1.791797e+002 2.026628e+001 1.630046e+002 -2.195300e+001 -7.058033e+000 -1.909425e+001 -1.361547e+002
126562500 -1.868800e+001 1.792598e+002 2.026743e+001 1.629991e+002 -2.197610e+001 -7.147558e+000 -1.908649e+001 -1.360335e+002
126601562.5 -1.868231e+001 1.790876e+002 2.026746e+001 1.630152e+002 -2.196098e+001 -7.054555e+000 -1.909382e+001 -1.360816e+002
126640625 -1.866167e+001 1.793286e+002 2.026682e+001 1.630011e+002 -2.198252e+001 -6.985841e+000 -1.909183e+001 -1.361406e+002
126679687.5 -1.868079e+001 1.792166e+002 2.026628e+001 1.630025e+002 -2.197583e+001 -7.081204e+000 -1.907696e+001 -1.361170e+002
126718750 -1.866289e+001 1.792676e+002 2.026575e+001 1.629925e+002 -2.195821e+001 -7.038542e+000 -1.909544e+001 -1.361563e+002
126757812.5 -1.867851e+001 1.794297e+002 2.026740e+001 1.629996e+002 -2.198365e+001 -6.997042e+000 -1.908752e+001 -1.361034e+002
126796875 -1.867318e+001 1.791689e+002 2.026633e+001 1.629888e+002 -2.197431e+001 -7.163648e+000 -1.908290e+001 -1.360272e+002
126835937.5 -1.868127e+001 1.792932e+002 2.026654e+001 1.629913e+002 -2.198483e+001 -6.966321e+000 -1.908506e+001 -1.360928e+002
126875000 -1.866687e+001 1.793068e+002 2.026659e+001 1.629898e+002 -2.196624e+001 -7.029993e+000 -1.908215e+001 -1.361517e+002
126914062.5 -1.868519e+001 1.792036e+002 2.026543e+001 1.629719e+002 -2.197162e+001 -7.115367e+000 -1.908191e+001 -1.361433e+002
126953125 -1.867608e+001 1.792103e+002 2.026351e+001 1.629820e+002 -2.196229e+001 -7.114360e+000 -1.907145e+001 -1.362448e+002
126992187.5 -1.866292e+001 1.791263e+002 2.026507e+001 1.629745e+002 -2.195450e+001 -7.036215e+000 -1.907287e+001 -1.362470e+002
127031250 -1.865788e+001 1.791977e+002 2.026430e+001 1.629751e+002 -2.195124e+001 -6.971616e+000 -1.907915e+001 -1.362804e+002
127070312.5 -1.867145e+001 1.792421e+002 2.026564e+001 1.629780e+002 -2.195041e+001 -6.891909e+000 -1.906980e+001 -1.362118e+002
127109375 -1.865906e+001 1.791626e+002 2.026424e+001 1.629764e+002 -2.193091e+001 -6.997696e+000 -1.908606e+001 -1.362821e+002
127148437.5 -1.865022e+001 1.791524e+002 2.026410e+001 1.629534e+002 -2.196570e+001 -7.001686e+000 -1.906363e+001 -1.362609e+002
127187500 -1.868144e+001 1.791665e+002 2.026604e+001 1.629486e+002 -2.196060e+001 -7.075459e+000 -1.907329e+001 -1.362023e+002
127226562.5 -1.867247e+001 1.792482e+002 2.026320e+001 1.629445e+002 -2.196886e+001 -6.996591e+000 -1.905471e+001 -1.362937e+002
127265625 -1.866192e+001 1.791101e+002 2.026523e+001 1.629390e+002 -2.197375e+001 -7.052965e+000 -1.903899e+001 -1.363148e+002
127304687.5 -1.866411e+001 1.793336e+002 2.026264e+001 1.629310e+002 -2.197005e+001 -7.085360e+000 -1.905999e+001 -1.362896e+002
127343750 -1.864751e+001 1.791398e+002 2.026055e+001 1.629415e+002 -2.195510e+001 -6.950764e+000 -1.904781e+001 -1.364213e+002
127382812.5 -1.867205e+001 1.790853e+002 2.026259e+001 1.629271e+002 -2.196981e+001 -7.073935e+000 -1.905347e+001 -1.362574e+002
127421875 -1.867219e+001 1.790958e+002 2.026322e+001 1.629352e+002 -2.195775e+001 -7.089442e+000 -1.903631e+001 -1.363118e+002
127460937.5 -1.867246e+001 1.791130e+002 2.026234e+001 1.629292e+002 -2.196111e+001 -7.009980e+000 -1.903258e+001 -1.363317e+002
127500000 -1.865657e+001 1.790435e+002 2.026221e+001 1.629267e+002 -2.196081e+001 -7.129299e+000 -1.904683e+001 -1.362770e+002
127539062.5 -1.865881e+001 1.791467e+002 2.026032e+001 1.629156e+002 -2.195899e+001 -6.991517e+000 -1.902591e+001 -1.363553e+002
127578125 -1.867346e+001 1.790928e+002 2.026271e+001 1.629164e+002 -2.196173e+001 -7.078913e+000 -1.902279e+001 -1.363361e+002
127617187.5 -1.865295e+001 1.791268e+002 2.026130e+001 1.629123e+002 -2.196000e+001 -7.115842e+000 -1.902789e+001 -1.363368e+002
127656250 -1.867498e+001 1.791042e+002 2.026211e+001 1.629004e+002 -2.197175e+001 -7.092265e+000 -1.902454e+001 -1.363438e+002
127695312.5 -1.867695e+001 1.791460e+002 2.025971e+001 1.628953e+002 -2.200702e+001 -7.105355e+000 -1.902855e+001 -1.363380e+002
127734375 -1.868055e+001 1.790840e+002 2.026040e+001 1.628993e+002 -2.197363e+001 -7.230586e+000 -1.902665e+001 -1.363421e+002
127773437.5 -1.866785e+001 1.790922e+002 2.026104e+001 1.628956e+002 -2.196494e+001 -7.109637e+000 -1.903383e+001 -1.363278e+002
127812500 -1.865886e+001 1.791269e+002 2.026213e+001 1.628938e+002 -2.196878e+001 -7.074181e+000 -1.903240e+001 -1.364679e+002
127851562.5 -1.868903e+001 1.790498e+002 2.026157e+001 1.628918e+002 -2.197459e+001 -7.200975e+000 -1.901667e+001 -1.363353e+002
127890625 -1.866915e+001 1.790488e+002 2.026181e+001 1.628851e+002 -2.196160e+001 -7.171273e+000 -1.904615e+001 -1.363374e+002
127929687.5 -1.867377e+001 1.790732e+002 2.026140e+001 1.628832e+002 -2.195842e+001 -7.101918e+000 -1.904529e+001 -1.364101e+002
127968750 -1.866792e+001 1.790738e+002 2.025977e+001 1.628932e+002 -2.197767e+001 -7.178730e+000 -1.902292e+001 -1.364611e+002
128007812.5 -1.868043e+001 1.790062e+002 2.026233e+001 1.628734e+002 -2.196145e+001 -7.315733e+000 -1.903580e+001 -1.363423e+002
128046875 -1.866401e+001 1.790332e+002 2.026257e+001 1.628693e+002 -2.195838e+001 -7.047820e+000 -1.905254e+001 -1.364707e+002
128085937.5 -1.866733e+001 1.790343e+002 2.026248e+001 1.628754e+002 -2.196577e+001 -7.130776e+000 -1.904064e+001 -1.364755e+002
128125000 -1.866871e+001 1.790445e+002 2.026211e+001 1.628599e+002 -2.195123e+001 -7.093060e+000 -1.903787e+001 -1.364871e+002
128164062.5 -1.867608e+001 1.789771e+002 2.026084e+001 1.628598e+002 -2.197301e+001 -7.062095e+000 -1.903236e+001 -1.364947e+002
128203125 -1.867796e+001 1.790468e+002 2.026206e+001 1.628608e+002 -2.196560e+001 -7.212642e+000 -1.905656e+001 -1.364769e+002
128242187.5 -1.867268e+001 1.790583e+002 2.025957e+001 1.628589e+002 -2.196984e+001 -7.180896e+000 -1.905008e+001 -1.365534e+002
128281250 -1.868035e+001 1.791044e+002 2.026130e+001 1.628429e+002 -2.197158e+001 -7.169379e+000 -1.905239e+001 -1.364459e+002
128320312.5 -1.869311e+001 1.789913e+002 2.026032e+001 1.628511e+002 -2.197086e+001 -7.368791e+000 -1.905411e+001 -1.364485e+002
128359375 -1.867950e+001 1.790008e+002 2.026187e+001 1.628518e+002 -2.196228e+001 -7.201940e+000 -1.904064e+001 -1.366425e+002
128398437.5 -1.866480e+001 1.789713e+002 2.026187e+001 1.628450e+002 -2.194034e+001 -7.179826e+000 -1.904918e+001 -1.365835e+002
128437500 -1.867924e+001 1.790350e+002 2.026081e+001 1.628336e+002 -2.198036e+001 -7.124618e+000 -1.905153e+001 -1.364996e+002
128476562.5 -1.868163e+001 1.790587e+002 2.026179e+001 1.628429e+002 -2.197138e+001 -7.259147e+000 -1.905341e+001 -1.365712e+002
128515625 -1.866748e+001 1.788773e+002 2.026161e+001 1.628389e+002 -2.194048e+001 -7.211523e+000 -1.906057e+001 -1.365290e+002
128554687.5 -1.868041e+001 1.789976e+002 2.026271e+001 1.628296e+002 -2.196033e+001 -7.294878e+000 -1.904852e+001 -1.365135e+002
128593750 -1.867077e+001 1.789455e+002 2.026031e+001 1.628224e+002 -2.194432e+001 -7.157311e+000 -1.904163e+001 -1.365988e+002
128632812.5 -1.867482e+001 1.789097e+002 2.026019e+001 1.628222e+002 -2.194916e+001 -7.235857e+000 -1.906148e+001 -1.364938e+002
128671875 -1.865744e+001 1.791084e+002 2.026035e+001 1.628208e+002 -2.196763e+001 -7.130518e+000 -1.902605e+001 -1.365786e+002
128710937.5 -1.867435e+001 1.790365e+002 2.026166e+001 1.628200e+002 -2.196806e+001 -7.147157e+000 -1.905816e+001 -1.365799e+002
128750000 -1.865194e+001 1.791014e+002 2.026057e+001 1.628177e+002 -2.195322e+001 -7.048704e+000 -1.906578e+001 -1.367301e+002
128789062.5 -1.867115e+001 1.789553e+002 2.025916e+001 1.628051e+002 -2.196025e+001 -7.171391e+000 -1.906288e+001 -1.366204e+002
128828125 -1.865985e+001 1.789273e+002 2.025946e+001 1.628027e+002 -2.194814e+001 -7.220126e+000 -1.906205e+001 -1.366295e+002
128867187.5 -1.866699e+001 1.789946e+002 2.026115e+001 1.627905e+002 -2.196183e+001 -7.137268e+000 -1.906219e+001 -1.366438e+002
128906250 -1.865074e+001 1.788943e+002 2.026031e+001 1.628017e+002 -2.194665e+001 -7.254354e+000 -1.905872e+001 -1.366511e+002
128945312.5 -1.865718e+001 1.790341e+002 2.026010e+001 1.628076e+002 -2.196349e+001 -7.205433e+000 -1.905564e+001 -1.367991e+002
128984375 -1.865413e+001 1.790464e+002 2.026180e+001 1.627909e+002 -2.195136e+001 -7.194573e+000 -1.906391e+001 -1.367272e+002
129023437.5 -1.866967e+001 1.789853e+002 2.026163e+001 1.627755e+002 -2.196042e+001 -7.289493e+000 -1.904794e+001 -1.365861e+002
129062500 -1.864393e+001 1.790064e+002 2.026035e+001 1.627839e+002 -2.194491e+001 -7.229896e+000 -1.907025e+001 -1.366924e+002
129101562.5 -1.865114e+001 1.789776e+002 2.025995e+001 1.627783e+002 -2.193760e+001 -7.133436e+000 -1.906654e+001 -1.367661e+002
129140625 -1.865133e+001 1.790553e+002 2.026024e+001 1.627728e+002 -2.197436e+001 -7.249774e+000 -1.905569e+001 -1.367103e+002
129179687.5 -1.865360e+001 1.789947e+002 2.025846e+001 1.627780e+002 -2.195892e+001 -7.224316e+000 -1.902989e+001 -1.367764e+002
129218750 -1.864996e+001 1.790019e+002 2.025933e+001 1.627681e+002 -2.196456e+001 -7.221972e+000 -1.905818e+001 -1.368708e+002
129257812.5 -1.864772e+001 1.790842e+002 2.025871e+001 1.627585e+002 -2.195971e+001 -7.202650e+000 -1.906333e+001 -1.368127e+002
129296875 -1.863031e+001 1.790126e+002 2.025854e+001 1.627725e+002 -2.195114e+001 -7.281916e+000 -1.906688e+001 -1.367568e+002
129335937.5 -1.863843e+001 1.789722e+002 2.025878e+001 1.627711e+002 -2.194695e+001 -7.289403e+000 -1.907381e+001 -1.368184e+002
129375000 -1.865178e+001 1.789684e+002 2.025861e+001 1.627528e+002 -2.196025e+001 -7.347533e+000 -1.905774e+001 -1.367144e+002
129414062.5 -1.864079e+001 1.790718e+002 2.025938e+001 1.627565e+002 -2.196388e+001 -7.123499e+000 -1.905456e+001 -1.369019e+002
129453125 -1.862275e+001 1.790511e+002 2.026072e+001 1.627485e+002 -2.195511e+001 -7.140796e+000 -1.905568e+001 -1.369453e+002
129492187.5 -1.865693e+001 1.790217e+002 2.025725e+001 1.627535e+002 -2.198342e+001 -7.379989e+000 -1.905001e+001 -1.368439e+002
129531250 -1.864337e+001 1.789452e+002 2.025920e+001 1.627476e+002 -2.196201e+001 -7.289176e+000 -1.904697e+001 -1.368160e+002
129570312.5 -1.864457e+001 1.789869e+002 2.025822e+001 1.627455e+002 -2.196810e+001 -7.326638e+000 -1.905315e+001 -1.368904e+002
129609375 -1.862998e+001 1.789492e+002 2.025891e+001 1.627372e+002 -2.195394e+001 -7.173706e+000 -1.904863e+001 -1.368621e+002
129648437.5 -1.863453e+001 1.789975e+002 2.025717e+001 1.627450e+002 -2.197598e+001 -7.296780e+000 -1.904306e+001 -1.367375e+002
129687500 -1.864122e+001 1.790868e+002 2.025862e+001 1.627421e+002 -2.196109e+001 -7.254383e+000 -1.905615e+001 -1.369345e+002
129726562.5 -1.863653e+001 1.790451e+002 2.025825e+001 1.627306e+002 -2.197188e+001 -7.198908e+000 -1.905824e+001 -1.367514e+002
129765625 -1.864684e+001 1.790581e+002 2.025797e+001 1.627296e+002 -2.197056e+001 -7.349375e+000 -1.905707e+001 -1.368265e+002
129804687.5 -1.864841e+001 1.790480e+002 2.025796e+001 1.627205e+002 -2.197597e+001 -7.227261e+000 -1.905478e+001 -1.369178e+002
129843750 -1.863971e+001 1.790374e+002 2.025710e+001 1.627178e+002 -2.196149e+001 -7.236194e+000 -1.905752e+001 -1.369556e+002
129882812.5 -1.865278e+001 1.789926e+002 2.025930e+001 1.627008e+002 -2.196478e+001 -7.309623e+000 -1.904133e+001 -1.369177e+002
129921875 -1.865442e+001 1.789022e+002 2.025697e+001 1.627096e+002 -2.195677e+001 -7.299086e+000 -1.904985e+001 -1.368805e+002
129960937.5 -1.866885e+001 1.789584e+002 2.025848e+001 1.627059e+002 -2.198432e+001 -7.353653e+000 -1.904302e+001 -1.369295e+002
130000000 -1.863901e+001 1.789328e+002 2.025651e+001 1.627044e+002 -2.195829e+001 -7.252090e+000 -1.907561e+001 -1.368237e+002
130039062.5 -1.865629e+001 1.789981e+002 2.025853e+001 1.627058e+002 -2.196876e+001 -7.222813e+000 -1.905695e+001 -1.368892e+002
130078125 -1.865159e+001 1.788828e+002 2.025731e+001 1.626899e+002 -2.194495e+001 -7.188786e+000 -1.905563e+001 -1.369649e+002
130117187.5 -1.866133e+001 1.789016e+002 2.025846e+001 1.626894e+002 -2.195559e+001 -7.386880e+000 -1.905906e+001 -1.368434e+002
130156250 -1.864782e+001 1.790268e+002 2.025652e+001 1.626803e+002 -2.195811e+001 -7.307737e+000 -1.905201e+001 -1.368759e+002
130195312.5 -1.865861e+001 1.789537e+002 2.025820e+001 1.626717e+002 -2.194999e+001 -7.272774e+000 -1.905363e+001 -1.369075e+002
130234375 -1.864924e+001 1.790036e+002 2.025796e+001 1.626792e+002 -2.196152e+001 -7.241861e+000 -1.907085e+001 -1.370655e+002
130273437.5 -1.864911e+001 1.789333e+002 2.025731e+001 1.626643e+002 -2.196946e+001 -7.290113e+000 -1.904303e+001 -1.369719e+002
130312500 -1.865635e+001 1.790313e+002 2.025497e+001 1.626811e+002 -2.196819e+001 -7.389841e+000 -1.906261e+001 -1.369847e+002
130351562.5 -1.867695e+001 1.788391e+002 2.025587e+001 1.626698e+002 -2.195395e+001 -7.374333e+000 -1.905893e+001 -1.369390e+002
130390625 -1.865591e+001 1.789262e+002 2.025473e+001 1.626489e+002 -2.196902e+001 -7.212846e+000 -1.906096e+001 -1.370365e+002
130429687.5 -1.866902e+001 1.788748e+002 2.025599e+001 1.626632e+002 -2.198599e+001 -7.454577e+000 -1.905201e+001 -1.370356e+002
130468750 -1.866698e+001 1.789622e+002 2.025790e+001 1.626529e+002 -2.197104e+001 -7.296865e+000 -1.905669e+001 -1.371204e+002
130507812.5 -1.867631e+001 1.788421e+002 2.025722e+001 1.626522e+002 -2.196590e+001 -7.433679e+000 -1.905832e+001 -1.368987e+002
130546875 -1.867837e+001 1.788839e+002 2.025599e+001 1.626492e+002 -2.197641e+001 -7.329158e+000 -1.904272e+001 -1.370051e+002
130585937.5 -1.867151e+001 1.789565e+002 2.025639e+001 1.626457e+002 -2.198028e+001 -7.419124e+000 -1.905881e+001 -1.369216e+002
130625000 -1.866617e+001 1.788175e+002 2.025643e+001 1.626371e+002 -2.195716e+001 -7.432173e+000 -1.907624e+001 -1.369220e+002
130664062.5 -1.866179e+001 1.788476e+002 2.025597e+001 1.626313e+002 -2.196200e+001 -7.350331e+000 -1.907191e+001 -1.370020e+002
130703125 -1.867433e+001 1.789041e+002 2.025526e+001 1.626425e+002 -2.198310e+001 -7.279731e+000 -1.905297e+001 -1.369097e+002
130742187.5 -1.864138e+001 1.788546e+002 2.025536e+001 1.626250e+002 -2.195539e+001 -7.206686e+000 -1.904514e+001 -1.370517e+002
130781250 -1.867446e+001 1.787942e+002 2.025613e+001 1.626329e+002 -2.196953e+001 -7.435632e+000 -1.904689e+001 -1.370128e+002
130820312.5 -1.867720e+001 1.788667e+002 2.025427e+001 1.626304e+002 -2.198172e+001 -7.435883e+000 -1.904763e+001 -1.369641e+002
130859375 -1.867069e+001 1.787107e+002 2.025611e+001 1.626243e+002 -2.195237e+001 -7.444337e+000 -1.906273e+001 -1.369196e+002
130898437.5 -1.867365e+001 1.787223e+002 2.025808e+001 1.626285e+002 -2.195514e+001 -7.404376e+000 -1.907113e+001 -1.370859e+002
130937500 -1.865899e+001 1.789045e+002 2.025546e+001 1.626212e+002 -2.196790e+001 -7.327898e+000 -1.905161e+001 -1.369829e+002
