!Agilent Technologies,N5230A,US44240068,A.07.50.67
!Agilent N5230A: A.07.50.67
!Date: Wednesday, November 10, 2021 19:10:58
!Correction: S11(Full 2 Port(1,2)) 
!S21(Full 2 Port(1,2)) 
!S12(Full 2 Port(1,2)) 
!S22(Full 2 Port(1,2)) 
!S2P File: Measurements: S11, S21, S12, S22:
# Hz S  dB   R 50
300000 -7.868268e+000 -3.756305e+000 2.432500e+001 -1.797702e+002 -3.023872e+001 5.382047e+000 -6.455709e+000 3.433869e+000
1237406.25 -8.232759e+000 -1.248220e+001 2.460298e+001 1.776994e+002 -2.943231e+001 1.309576e+001 -5.870725e+000 -5.013142e+000
2174812.5 -8.448121e+000 -2.079228e+001 2.454961e+001 1.748173e+002 -2.856645e+001 1.922635e+001 -5.796082e+000 -1.267471e+001
3112218.75 -8.713781e+000 -2.888335e+001 2.440037e+001 1.724435e+002 -2.759951e+001 2.298991e+001 -5.918951e+000 -1.986760e+001
4049625 -9.039548e+000 -3.659463e+001 2.418720e+001 1.704845e+002 -2.674340e+001 2.492529e+001 -6.172589e+000 -2.655092e+001
4987031.25 -9.409490e+000 -4.379073e+001 2.396788e+001 1.687296e+002 -2.602725e+001 2.549182e+001 -6.522351e+000 -3.261654e+001
5924437.5 -9.799795e+000 -5.041462e+001 2.371241e+001 1.674476e+002 -2.535301e+001 2.529320e+001 -6.918828e+000 -3.827369e+001
6861843.75 -1.021237e+001 -5.675452e+001 2.348105e+001 1.663559e+002 -2.482264e+001 2.453786e+001 -7.324878e+000 -4.334435e+001
7799250 -1.060437e+001 -6.236692e+001 2.322684e+001 1.656643e+002 -2.439088e+001 2.356263e+001 -7.775647e+000 -4.800124e+001
8736656.25 -1.101908e+001 -6.764478e+001 2.299471e+001 1.651081e+002 -2.398576e+001 2.231251e+001 -8.212916e+000 -5.219622e+001
9674062.5 -1.139861e+001 -7.269347e+001 2.278062e+001 1.647670e+002 -2.373363e+001 2.132636e+001 -8.665325e+000 -5.615318e+001
10611468.75 -1.177362e+001 -7.725767e+001 2.259519e+001 1.645365e+002 -2.348094e+001 2.021777e+001 -9.111720e+000 -5.969167e+001
11548875 -1.212614e+001 -8.157755e+001 2.241640e+001 1.644538e+002 -2.328679e+001 1.907483e+001 -9.539568e+000 -6.284906e+001
12486281.25 -1.245114e+001 -8.541888e+001 2.224447e+001 1.644680e+002 -2.310412e+001 1.802525e+001 -9.953935e+000 -6.594398e+001
13423687.5 -1.275958e+001 -8.914447e+001 2.209626e+001 1.645036e+002 -2.294962e+001 1.700896e+001 -1.034494e+001 -6.867520e+001
14361093.75 -1.303771e+001 -9.245445e+001 2.196283e+001 1.646460e+002 -2.288181e+001 1.612359e+001 -1.075103e+001 -7.124895e+001
15298500 -1.332916e+001 -9.597490e+001 2.184341e+001 1.647333e+002 -2.271840e+001 1.527814e+001 -1.111536e+001 -7.353577e+001
16235906.25 -1.359744e+001 -9.879270e+001 2.172372e+001 1.649745e+002 -2.265204e+001 1.444689e+001 -1.146511e+001 -7.593465e+001
17173312.5 -1.382212e+001 -1.017288e+002 2.162242e+001 1.651592e+002 -2.253663e+001 1.357448e+001 -1.180135e+001 -7.796329e+001
18110718.75 -1.403115e+001 -1.043965e+002 2.152829e+001 1.653631e+002 -2.247358e+001 1.311905e+001 -1.212608e+001 -7.996229e+001
19048125 -1.425804e+001 -1.070697e+002 2.144465e+001 1.655671e+002 -2.245021e+001 1.241681e+001 -1.246125e+001 -8.184159e+001
19985531.25 -1.445867e+001 -1.094294e+002 2.137090e+001 1.657444e+002 -2.238755e+001 1.154818e+001 -1.275070e+001 -8.377761e+001
20922937.5 -1.462348e+001 -1.119153e+002 2.129753e+001 1.659413e+002 -2.232841e+001 1.124856e+001 -1.305415e+001 -8.546934e+001
21860343.75 -1.478579e+001 -1.139637e+002 2.123778e+001 1.661446e+002 -2.228924e+001 1.061958e+001 -1.332401e+001 -8.709586e+001
22797750 -1.494328e+001 -1.159959e+002 2.118570e+001 1.663327e+002 -2.226707e+001 1.012886e+001 -1.361759e+001 -8.854970e+001
23735156.25 -1.508966e+001 -1.180942e+002 2.113072e+001 1.664876e+002 -2.223537e+001 9.651940e+000 -1.385532e+001 -8.996495e+001
24672562.5 -1.523084e+001 -1.199420e+002 2.108412e+001 1.666772e+002 -2.219976e+001 9.173517e+000 -1.411274e+001 -9.157742e+001
25609968.75 -1.534153e+001 -1.216589e+002 2.104464e+001 1.668332e+002 -2.218840e+001 8.624502e+000 -1.434089e+001 -9.275207e+001
26547375 -1.544030e+001 -1.235075e+002 2.100341e+001 1.669747e+002 -2.217231e+001 8.146400e+000 -1.456062e+001 -9.412045e+001
27484781.25 -1.556342e+001 -1.250386e+002 2.096668e+001 1.671408e+002 -2.211788e+001 7.879792e+000 -1.475640e+001 -9.541475e+001
28422187.5 -1.567618e+001 -1.267696e+002 2.093156e+001 1.672756e+002 -2.209872e+001 7.530285e+000 -1.497360e+001 -9.647475e+001
29359593.75 -1.577178e+001 -1.281643e+002 2.090312e+001 1.673882e+002 -2.207053e+001 7.208567e+000 -1.516889e+001 -9.772293e+001
30297000 -1.587748e+001 -1.296013e+002 2.087316e+001 1.675445e+002 -2.207318e+001 6.835139e+000 -1.537050e+001 -9.884473e+001
31234406.25 -1.596776e+001 -1.310399e+002 2.084897e+001 1.676555e+002 -2.206167e+001 6.615102e+000 -1.557115e+001 -9.992719e+001
32171812.5 -1.600992e+001 -1.322115e+002 2.082307e+001 1.677335e+002 -2.205001e+001 6.204763e+000 -1.571975e+001 -1.008289e+002
33109218.75 -1.611460e+001 -1.336766e+002 2.080247e+001 1.678156e+002 -2.202794e+001 5.910110e+000 -1.587740e+001 -1.019220e+002
34046625 -1.616929e+001 -1.349792e+002 2.078124e+001 1.678900e+002 -2.202904e+001 5.656941e+000 -1.605418e+001 -1.027967e+002
34984031.25 -1.624278e+001 -1.362375e+002 2.076056e+001 1.679666e+002 -2.200839e+001 5.579790e+000 -1.619778e+001 -1.036420e+002
35921437.5 -1.628512e+001 -1.374578e+002 2.074472e+001 1.680274e+002 -2.201358e+001 5.059025e+000 -1.634647e+001 -1.047612e+002
36858843.75 -1.633497e+001 -1.385421e+002 2.072762e+001 1.681086e+002 -2.201277e+001 4.787801e+000 -1.649351e+001 -1.055074e+002
37796250 -1.639258e+001 -1.394073e+002 2.071636e+001 1.681957e+002 -2.197800e+001 4.722042e+000 -1.663293e+001 -1.063043e+002
38733656.25 -1.646048e+001 -1.405061e+002 2.070298e+001 1.682126e+002 -2.196138e+001 4.389123e+000 -1.675471e+001 -1.071437e+002
39671062.5 -1.647133e+001 -1.414140e+002 2.068427e+001 1.682550e+002 -2.197019e+001 4.130618e+000 -1.687404e+001 -1.080806e+002
40608468.75 -1.656059e+001 -1.425696e+002 2.066522e+001 1.683210e+002 -2.197836e+001 3.920452e+000 -1.701898e+001 -1.088296e+002
41545875 -1.659237e+001 -1.435728e+002 2.065505e+001 1.683340e+002 -2.195267e+001 3.635324e+000 -1.711207e+001 -1.096969e+002
42483281.25 -1.662477e+001 -1.445347e+002 2.064672e+001 1.683906e+002 -2.195378e+001 3.421808e+000 -1.725213e+001 -1.101504e+002
43420687.5 -1.666383e+001 -1.453047e+002 2.063383e+001 1.684147e+002 -2.196803e+001 3.344611e+000 -1.736830e+001 -1.111050e+002
44358093.75 -1.671397e+001 -1.461529e+002 2.062451e+001 1.684256e+002 -2.196680e+001 3.082477e+000 -1.747028e+001 -1.117016e+002
45295500 -1.673730e+001 -1.470479e+002 2.061684e+001 1.684549e+002 -2.193662e+001 2.858778e+000 -1.754207e+001 -1.122671e+002
46232906.25 -1.678981e+001 -1.479964e+002 2.060464e+001 1.684514e+002 -2.194704e+001 2.736494e+000 -1.766636e+001 -1.130175e+002
47170312.5 -1.680354e+001 -1.487764e+002 2.059885e+001 1.684691e+002 -2.194309e+001 2.419771e+000 -1.775646e+001 -1.136050e+002
48107718.75 -1.681257e+001 -1.495296e+002 2.059358e+001 1.684591e+002 -2.193187e+001 2.234349e+000 -1.783948e+001 -1.142897e+002
49045125 -1.683855e+001 -1.502661e+002 2.058618e+001 1.684388e+002 -2.193482e+001 2.038829e+000 -1.792767e+001 -1.145836e+002
49982531.25 -1.687954e+001 -1.511930e+002 2.057704e+001 1.684231e+002 -2.192498e+001 1.825370e+000 -1.802979e+001 -1.153360e+002
50919937.5 -1.691275e+001 -1.518720e+002 2.057203e+001 1.684339e+002 -2.189545e+001 1.761090e+000 -1.807979e+001 -1.157837e+002
51857343.75 -1.692435e+001 -1.527107e+002 2.056850e+001 1.684161e+002 -2.192343e+001 1.523733e+000 -1.813805e+001 -1.162552e+002
52794750 -1.696683e+001 -1.531487e+002 2.056213e+001 1.684139e+002 -2.193108e+001 1.418601e+000 -1.822309e+001 -1.169393e+002
53732156.25 -1.696976e+001 -1.540933e+002 2.055688e+001 1.683783e+002 -2.191114e+001 1.206547e+000 -1.828197e+001 -1.174114e+002
54669562.5 -1.700504e+001 -1.547439e+002 2.054938e+001 1.683589e+002 -2.189573e+001 1.151052e+000 -1.839087e+001 -1.177342e+002
55606968.75 -1.702367e+001 -1.553651e+002 2.054642e+001 1.683311e+002 -2.190049e+001 9.945378e-001 -1.846392e+001 -1.182072e+002
56544375 -1.705460e+001 -1.560502e+002 2.054245e+001 1.683015e+002 -2.191316e+001 7.489515e-001 -1.849451e+001 -1.186906e+002
57481781.25 -1.703985e+001 -1.566391e+002 2.053717e+001 1.682769e+002 -2.188942e+001 5.967650e-001 -1.854208e+001 -1.192456e+002
58419187.5 -1.709969e+001 -1.573763e+002 2.053389e+001 1.682356e+002 -2.189473e+001 4.824931e-001 -1.859607e+001 -1.197305e+002
59356593.75 -1.710337e+001 -1.578713e+002 2.052872e+001 1.681888e+002 -2.189451e+001 3.898091e-001 -1.867383e+001 -1.198762e+002
60294000 -1.712002e+001 -1.583599e+002 2.052521e+001 1.681258e+002 -2.188745e+001 2.418443e-001 -1.869161e+001 -1.204435e+002
61231406.25 -1.714600e+001 -1.591121e+002 2.052134e+001 1.680947e+002 -2.189006e+001 3.186221e-002 -1.873709e+001 -1.207093e+002
62168812.5 -1.715245e+001 -1.597068e+002 2.051994e+001 1.680558e+002 -2.189797e+001 -1.577701e-001 -1.878475e+001 -1.212770e+002
63106218.75 -1.719334e+001 -1.603018e+002 2.051353e+001 1.680099e+002 -2.189247e+001 -2.580210e-001 -1.886709e+001 -1.216909e+002
64043625 -1.716772e+001 -1.609444e+002 2.051010e+001 1.679439e+002 -2.186520e+001 -4.902662e-001 -1.885615e+001 -1.219183e+002
64981031.25 -1.717881e+001 -1.613805e+002 2.050817e+001 1.678994e+002 -2.186758e+001 -6.079423e-001 -1.894078e+001 -1.220714e+002
65918437.5 -1.723086e+001 -1.617852e+002 2.050469e+001 1.678333e+002 -2.188994e+001 -5.242572e-001 -1.895083e+001 -1.225888e+002
66855843.75 -1.725116e+001 -1.626756e+002 2.050157e+001 1.677940e+002 -2.188003e+001 -8.263735e-001 -1.899729e+001 -1.227265e+002
67793250 -1.727561e+001 -1.630117e+002 2.049534e+001 1.677381e+002 -2.189050e+001 -9.075572e-001 -1.902388e+001 -1.231889e+002
68730656.25 -1.730061e+001 -1.636379e+002 2.049559e+001 1.676693e+002 -2.188209e+001 -1.094476e+000 -1.906468e+001 -1.234535e+002
69668062.5 -1.726817e+001 -1.640649e+002 2.049117e+001 1.676160e+002 -2.188720e+001 -1.277421e+000 -1.908253e+001 -1.236255e+002
70605468.75 -1.734625e+001 -1.646505e+002 2.048970e+001 1.675458e+002 -2.188226e+001 -1.415372e+000 -1.909285e+001 -1.240234e+002
71542875 -1.735186e+001 -1.651288e+002 2.048745e+001 1.675050e+002 -2.187769e+001 -1.446567e+000 -1.914139e+001 -1.242136e+002
72480281.25 -1.735779e+001 -1.655768e+002 2.048317e+001 1.674259e+002 -2.188597e+001 -1.658996e+000 -1.917074e+001 -1.245519e+002
73417687.5 -1.738066e+001 -1.661026e+002 2.048139e+001 1.673330e+002 -2.188221e+001 -1.739175e+000 -1.917531e+001 -1.248811e+002
74355093.75 -1.740885e+001 -1.664719e+002 2.047546e+001 1.672796e+002 -2.188571e+001 -1.672127e+000 -1.916939e+001 -1.248833e+002
75292500 -1.741826e+001 -1.670690e+002 2.047397e+001 1.671974e+002 -2.187200e+001 -1.850247e+000 -1.917731e+001 -1.254297e+002
76229906.25 -1.745119e+001 -1.675121e+002 2.046943e+001 1.671265e+002 -2.187601e+001 -2.063920e+000 -1.920436e+001 -1.254416e+002
77167312.5 -1.748119e+001 -1.680037e+002 2.046796e+001 1.670536e+002 -2.186986e+001 -2.215677e+000 -1.922376e+001 -1.257194e+002
78104718.75 -1.747565e+001 -1.686174e+002 2.046146e+001 1.669939e+002 -2.187197e+001 -2.344803e+000 -1.924070e+001 -1.259111e+002
79042125 -1.753373e+001 -1.689021e+002 2.045787e+001 1.669014e+002 -2.189423e+001 -2.428367e+000 -1.926653e+001 -1.261426e+002
79979531.25 -1.755338e+001 -1.692169e+002 2.045580e+001 1.668461e+002 -2.187586e+001 -2.575049e+000 -1.926543e+001 -1.267259e+002
80916937.5 -1.759771e+001 -1.697793e+002 2.045202e+001 1.667369e+002 -2.190596e+001 -2.600121e+000 -1.930206e+001 -1.265850e+002
81854343.75 -1.758698e+001 -1.701155e+002 2.044844e+001 1.666561e+002 -2.186739e+001 -2.872795e+000 -1.930236e+001 -1.270701e+002
82791750 -1.760693e+001 -1.706166e+002 2.044678e+001 1.665917e+002 -2.188958e+001 -2.887454e+000 -1.926502e+001 -1.272030e+002
83729156.25 -1.763398e+001 -1.710225e+002 2.044356e+001 1.665204e+002 -2.188233e+001 -3.030472e+000 -1.929006e+001 -1.270202e+002
84666562.5 -1.764729e+001 -1.716337e+002 2.043497e+001 1.664393e+002 -2.187966e+001 -3.136068e+000 -1.929414e+001 -1.274079e+002
85603968.75 -1.771189e+001 -1.719214e+002 2.043726e+001 1.663584e+002 -2.188728e+001 -3.216302e+000 -1.927393e+001 -1.277412e+002
86541375 -1.771783e+001 -1.721751e+002 2.043077e+001 1.662702e+002 -2.188869e+001 -3.307409e+000 -1.928907e+001 -1.280272e+002
87478781.25 -1.774919e+001 -1.724633e+002 2.042390e+001 1.661962e+002 -2.188379e+001 -3.457222e+000 -1.928504e+001 -1.285397e+002
88416187.5 -1.777180e+001 -1.729148e+002 2.042088e+001 1.661178e+002 -2.189258e+001 -3.550050e+000 -1.927727e+001 -1.283489e+002
89353593.75 -1.780593e+001 -1.731237e+002 2.041728e+001 1.660550e+002 -2.189756e+001 -3.795520e+000 -1.931634e+001 -1.284510e+002
90291000 -1.784440e+001 -1.735720e+002 2.041333e+001 1.659674e+002 -2.190650e+001 -3.799087e+000 -1.928367e+001 -1.287232e+002
91228406.25 -1.784900e+001 -1.739537e+002 2.041194e+001 1.658765e+002 -2.190553e+001 -3.873814e+000 -1.928106e+001 -1.290581e+002
92165812.5 -1.788994e+001 -1.742074e+002 2.040704e+001 1.657924e+002 -2.190564e+001 -4.064042e+000 -1.928325e+001 -1.290042e+002
93103218.75 -1.791272e+001 -1.745938e+002 2.040149e+001 1.657168e+002 -2.190209e+001 -4.213863e+000 -1.925819e+001 -1.293764e+002
94040625 -1.795060e+001 -1.748460e+002 2.039789e+001 1.656572e+002 -2.191332e+001 -4.183302e+000 -1.927715e+001 -1.296219e+002
94978031.25 -1.794633e+001 -1.752358e+002 2.039517e+001 1.655560e+002 -2.190557e+001 -4.274039e+000 -1.926234e+001 -1.297808e+002
95915437.5 -1.801133e+001 -1.752507e+002 2.039191e+001 1.654800e+002 -2.191777e+001 -4.343408e+000 -1.924140e+001 -1.298695e+002
96852843.75 -1.803129e+001 -1.758149e+002 2.038576e+001 1.654032e+002 -2.189227e+001 -4.603012e+000 -1.925377e+001 -1.302779e+002
97790250 -1.806492e+001 -1.758407e+002 2.037755e+001 1.653160e+002 -2.189741e+001 -4.606071e+000 -1.923832e+001 -1.305636e+002
98727656.25 -1.807053e+001 -1.759788e+002 2.037570e+001 1.652398e+002 -2.190856e+001 -4.567583e+000 -1.923311e+001 -1.307537e+002
99665062.5 -1.814743e+001 -1.763819e+002 2.036972e+001 1.651474e+002 -2.191376e+001 -4.829224e+000 -1.920206e+001 -1.308772e+002
100602468.75 -1.812291e+001 -1.768080e+002 2.036683e+001 1.650699e+002 -2.191911e+001 -4.776237e+000 -1.923315e+001 -1.311765e+002
101539875 -1.816498e+001 -1.770155e+002 2.036223e+001 1.649958e+002 -2.192195e+001 -5.060273e+000 -1.922073e+001 -1.313951e+002
102477281.25 -1.820764e+001 -1.768980e+002 2.035956e+001 1.649358e+002 -2.191101e+001 -4.897140e+000 -1.922234e+001 -1.315682e+002
103414687.5 -1.816355e+001 -1.772384e+002 2.035329e+001 1.648304e+002 -2.190179e+001 -5.112777e+000 -1.919377e+001 -1.316892e+002
104352093.75 -1.823511e+001 -1.772876e+002 2.035067e+001 1.647716e+002 -2.192828e+001 -5.187867e+000 -1.916808e+001 -1.317289e+002
105289500 -1.826284e+001 -1.777685e+002 2.034710e+001 1.646949e+002 -2.190778e+001 -5.307211e+000 -1.919094e+001 -1.323264e+002
106226906.25 -1.827763e+001 -1.777718e+002 2.034131e+001 1.646181e+002 -2.191160e+001 -5.276809e+000 -1.917132e+001 -1.324376e+002
107164312.5 -1.832355e+001 -1.777675e+002 2.033671e+001 1.645276e+002 -2.193415e+001 -5.320755e+000 -1.917623e+001 -1.325036e+002
108101718.75 -1.830369e+001 -1.781932e+002 2.032989e+001 1.644574e+002 -2.192956e+001 -5.509334e+000 -1.919122e+001 -1.325853e+002
109039125 -1.833163e+001 -1.785230e+002 2.033114e+001 1.643854e+002 -2.193908e+001 -5.595642e+000 -1.918413e+001 -1.327855e+002
109976531.25 -1.834812e+001 -1.785641e+002 2.032742e+001 1.642807e+002 -2.193013e+001 -5.811401e+000 -1.914872e+001 -1.330912e+002
110913937.5 -1.839004e+001 -1.786500e+002 2.032287e+001 1.642375e+002 -2.192982e+001 -5.787930e+000 -1.915240e+001 -1.334507e+002
111851343.75 -1.840342e+001 -1.787464e+002 2.031586e+001 1.641425e+002 -2.193386e+001 -5.798694e+000 -1.912942e+001 -1.336595e+002
112788750 -1.842542e+001 -1.788803e+002 2.031701e+001 1.640917e+002 -2.193651e+001 -5.925223e+000 -1.912003e+001 -1.340284e+002
113726156.25 -1.844087e+001 -1.790131e+002 2.031180e+001 1.639978e+002 -2.194566e+001 -6.069322e+000 -1.911606e+001 -1.339204e+002
114663562.5 -1.846538e+001 -1.792112e+002 2.030494e+001 1.638992e+002 -2.195037e+001 -6.113955e+000 -1.912188e+001 -1.340780e+002
115600968.75 -1.849652e+001 -1.791982e+002 2.030136e+001 1.638589e+002 -2.195381e+001 -6.124837e+000 -1.912626e+001 -1.343868e+002
116538375 -1.849705e+001 -1.794027e+002 2.030002e+001 1.637850e+002 -2.194572e+001 -6.382136e+000 -1.912181e+001 -1.345676e+002
117475781.25 -1.850607e+001 -1.795832e+002 2.029980e+001 1.636820e+002 -2.195449e+001 -6.389510e+000 -1.911706e+001 -1.347616e+002
118413187.5 -1.850772e+001 -1.796697e+002 2.029176e+001 1.636085e+002 -2.196705e+001 -6.364239e+000 -1.906218e+001 -1.347336e+002
119350593.75 -1.852550e+001 -1.796128e+002 2.028902e+001 1.635623e+002 -2.196066e+001 -6.392573e+000 -1.908930e+001 -1.351112e+002
120288000 -1.854049e+001 -1.798880e+002 2.028795e+001 1.634796e+002 -2.193187e+001 -6.515251e+000 -1.911365e+001 -1.352249e+002
121225406.25 -1.855289e+001 1.798857e+002 2.028171e+001 1.634213e+002 -2.194543e+001 -6.671284e+000 -1.909137e+001 -1.356500e+002
122162812.5 -1.855043e+001 1.798167e+002 2.027977e+001 1.633197e+002 -2.195414e+001 -6.674472e+000 -1.907056e+001 -1.356534e+002
123100218.75 -1.857647e+001 1.799362e+002 2.027687e+001 1.632649e+002 -2.196919e+001 -6.818822e+000 -1.907228e+001 -1.359356e+002
124037625 -1.857433e+001 1.798616e+002 2.027399e+001 1.631823e+002 -2.195280e+001 -6.828640e+000 -1.907792e+001 -1.359548e+002
124975031.25 -1.856767e+001 1.795577e+002 2.026976e+001 1.630887e+002 -2.196483e+001 -6.922129e+000 -1.906509e+001 -1.362165e+002
125912437.5 -1.861982e+001 1.796846e+002 2.026537e+001 1.630253e+002 -2.196433e+001 -7.025656e+000 -1.905113e+001 -1.361636e+002
126849843.75 -1.862452e+001 1.793312e+002 2.026647e+001 1.629761e+002 -2.194181e+001 -7.169960e+000 -1.909291e+001 -1.363229e+002
127787250 -1.860854e+001 1.792477e+002 2.026069e+001 1.628796e+002 -2.196676e+001 -7.124538e+000 -1.901156e+001 -1.365627e+002
128724656.25 -1.862869e+001 1.791759e+002 2.026285e+001 1.627951e+002 -2.197382e+001 -7.286949e+000 -1.903709e+001 -1.368708e+002
129662062.5 -1.859125e+001 1.792361e+002 2.025673e+001 1.627200e+002 -2.197139e+001 -7.271606e+000 -1.904724e+001 -1.370693e+002
130599468.75 -1.862691e+001 1.790490e+002 2.025409e+001 1.626197e+002 -2.196711e+001 -7.441559e+000 -1.905873e+001 -1.371019e+002
131536875 -1.861238e+001 1.789921e+002 2.025336e+001 1.625775e+002 -2.197699e+001 -7.392762e+000 -1.902308e+001 -1.372755e+002
132474281.25 -1.863230e+001 1.787973e+002 2.024789e+001 1.625164e+002 -2.196344e+001 -7.470191e+000 -1.901756e+001 -1.375820e+002
133411687.5 -1.863088e+001 1.787423e+002 2.024774e+001 1.624395e+002 -2.195957e+001 -7.369579e+000 -1.902158e+001 -1.377177e+002
134349093.75 -1.861756e+001 1.787492e+002 2.024592e+001 1.623442e+002 -2.197391e+001 -7.677739e+000 -1.903460e+001 -1.378667e+002
135286500 -1.866062e+001 1.788310e+002 2.024331e+001 1.622989e+002 -2.198422e+001 -7.713645e+000 -1.903406e+001 -1.379116e+002
136223906.25 -1.862153e+001 1.783296e+002 2.024477e+001 1.621778e+002 -2.197819e+001 -7.880468e+000 -1.901586e+001 -1.379488e+002
137161312.5 -1.867327e+001 1.784937e+002 2.024050e+001 1.621128e+002 -2.195772e+001 -7.822163e+000 -1.901608e+001 -1.382378e+002
138098718.75 -1.865146e+001 1.781943e+002 2.023545e+001 1.620211e+002 -2.195232e+001 -7.932086e+000 -1.900488e+001 -1.382355e+002
139036125 -1.860635e+001 1.781017e+002 2.023658e+001 1.619429e+002 -2.196048e+001 -8.122316e+000 -1.902194e+001 -1.383769e+002
139973531.25 -1.861034e+001 1.779860e+002 2.023498e+001 1.618691e+002 -2.198725e+001 -8.031345e+000 -1.899731e+001 -1.388923e+002
140910937.5 -1.864944e+001 1.777461e+002 2.023132e+001 1.617921e+002 -2.196920e+001 -8.185764e+000 -1.902449e+001 -1.389300e+002
141848343.75 -1.861218e+001 1.778320e+002 2.023010e+001 1.617194e+002 -2.196509e+001 -8.047603e+000 -1.900572e+001 -1.390946e+002
142785750 -1.861131e+001 1.778996e+002 2.022331e+001 1.616276e+002 -2.199647e+001 -8.214532e+000 -1.899847e+001 -1.389600e+002
