!Agilent Technologies,N5230A,US44240068,A.07.50.67
!Agilent N5230A: A.07.50.67
!Date: Wednesday, November 10, 2021 18:21:32
!Correction: S11(Full 2 Port(1,2)) 
!S21(Full 2 Port(1,2)) 
!S12(Full 2 Port(1,2)) 
!S22(Full 2 Port(1,2)) 
!S2P File: Measurements: S11, S21, S12, S22:
# Hz S  dB   R 50
300000 -6.678062e-003 4.406209e-002 -8.780276e+001 7.383032e+001 -9.410029e+001 2.153422e+001 -1.364838e-002 8.684359e-003
1237406.25 -1.588395e-003 -2.400491e-001 -1.102896e+002 -8.741261e+001 -1.025659e+002 2.273209e+001 -2.869738e-003 -2.478160e-001
2174812.5 -2.382607e-003 -4.386367e-001 -1.028779e+002 -1.352239e+002 -1.042603e+002 -1.292321e+001 -3.358020e-003 -4.632156e-001
3112218.75 -1.966093e-003 -6.376763e-001 -1.008570e+002 1.305525e+002 -1.075912e+002 4.088254e+001 -4.119163e-003 -6.705838e-001
4049625 -3.037425e-003 -8.466673e-001 -1.374856e+002 2.382049e+001 -1.028863e+002 3.893560e+000 -4.462971e-003 -8.839930e-001
4987031.25 -2.831219e-003 -1.037626e+000 -1.037371e+002 4.339537e+001 -1.081931e+002 -1.397632e+001 -4.071433e-003 -1.093625e+000
5924437.5 -3.786807e-003 -1.243154e+000 -1.130624e+002 -1.624091e+002 -1.131527e+002 5.537051e+001 -5.162740e-003 -1.309925e+000
6861843.75 -3.698942e-003 -1.435870e+000 -1.012947e+002 6.115712e+000 -1.005756e+002 -1.965749e+001 -5.146849e-003 -1.511810e+000
7799250 -4.247467e-003 -1.642251e+000 -1.079357e+002 -1.749730e+002 -1.045586e+002 -7.722242e+001 -5.672160e-003 -1.725727e+000
8736656.25 -5.169982e-003 -1.843032e+000 -9.842341e+001 3.658555e+001 -1.012943e+002 1.217219e+002 -5.742773e-003 -1.936798e+000
9674062.5 -5.321031e-003 -2.042662e+000 -1.045657e+002 1.615570e+002 -9.909116e+001 1.303835e+002 -6.738964e-003 -2.151367e+000
10611468.75 -4.971388e-003 -2.240235e+000 -1.006333e+002 8.525838e+001 -1.013367e+002 7.377255e+001 -6.176368e-003 -2.354294e+000
11548875 -5.000284e-003 -2.444267e+000 -1.021065e+002 -1.019804e+002 -1.005807e+002 2.600230e+001 -6.145551e-003 -2.567096e+000
12486281.25 -6.090400e-003 -2.636683e+000 -1.029615e+002 1.314453e+002 -9.689505e+001 7.300613e+001 -6.274670e-003 -2.779167e+000
13423687.5 -4.300160e-003 -2.837126e+000 -1.037842e+002 -5.891096e+001 -9.977707e+001 1.004554e+001 -4.579148e-003 -2.985865e+000
14361093.75 -5.321924e-003 -3.038091e+000 -9.737285e+001 2.400864e+000 -1.037944e+002 -1.739020e+002 -4.835562e-003 -3.196166e+000
15298500 -1.738046e-002 -3.242326e+000 -1.076747e+002 -1.010174e+002 -9.682744e+001 8.375375e+001 5.769530e-003 -3.307322e+000
16235906.25 -5.698587e-003 -3.433891e+000 -1.029846e+002 1.402320e+002 -1.049229e+002 3.318262e+001 -5.797197e-003 -3.616521e+000
17173312.5 -6.561392e-003 -3.629388e+000 -9.637234e+001 9.376581e+001 -9.292203e+001 1.283234e+002 -5.779635e-003 -3.817613e+000
18110718.75 -6.960711e-003 -3.829014e+000 -1.003773e+002 1.315763e+002 -9.820105e+001 9.973289e+001 -6.439552e-003 -4.031727e+000
19048125 -8.078461e-003 -4.027730e+000 -9.985643e+001 7.906316e+001 -1.012043e+002 8.860726e+000 -6.771463e-003 -4.234124e+000
19985531.25 -8.456352e-003 -4.222268e+000 -1.011612e+002 5.900221e+001 -9.752954e+001 1.097496e+002 -7.926165e-003 -4.445289e+000
20922937.5 -8.816902e-003 -4.424127e+000 -1.274728e+002 1.201269e+002 -9.830343e+001 1.339670e+002 -7.943414e-003 -4.652672e+000
21860343.75 -9.606216e-003 -4.611694e+000 -1.094224e+002 -1.986946e+001 -1.045577e+002 1.264585e+002 -8.849703e-003 -4.860248e+000
22797750 -1.010691e-002 -4.811090e+000 -9.811676e+001 1.155740e+002 -1.001718e+002 2.757542e+001 -9.154520e-003 -5.069720e+000
23735156.25 -1.079600e-002 -5.015508e+000 -9.576949e+001 2.737307e+001 -1.017552e+002 1.602190e+002 -1.011799e-002 -5.279374e+000
24672562.5 -1.266498e-002 -5.210370e+000 -1.006484e+002 9.293933e+001 -9.878210e+001 1.106046e+002 -9.476379e-003 -5.485111e+000
25609968.75 -1.281134e-002 -5.413009e+000 -1.055659e+002 -1.724337e+002 -9.302995e+001 9.634151e+001 -9.962908e-003 -5.690475e+000
26547375 -1.390136e-002 -5.605866e+000 -1.077781e+002 1.542496e+002 -9.695728e+001 -2.438422e+001 -1.063671e-002 -5.899902e+000
27484781.25 -1.385742e-002 -5.799070e+000 -1.012168e+002 1.032784e+002 -1.071927e+002 1.150380e+002 -1.157252e-002 -6.103119e+000
28422187.5 -1.464731e-002 -5.999554e+000 -9.385540e+001 1.195581e+002 -9.576919e+001 8.404235e+001 -1.234523e-002 -6.306201e+000
29359593.75 -1.634086e-002 -6.190851e+000 -9.442056e+001 9.078162e+001 -9.512823e+001 6.453585e+001 -1.270544e-002 -6.514246e+000
30297000 -1.599924e-002 -6.391418e+000 -1.001354e+002 7.623199e+001 -9.261291e+001 9.990934e+001 -1.338125e-002 -6.719855e+000
31234406.25 -1.733069e-002 -6.583945e+000 -9.636762e+001 4.843692e+001 -9.734786e+001 6.468999e+001 -1.425891e-002 -6.928259e+000
32171812.5 -1.810394e-002 -6.786354e+000 -9.225138e+001 9.558545e+001 -9.395557e+001 7.830418e+001 -1.444933e-002 -7.132438e+000
33109218.75 -1.952051e-002 -6.980550e+000 -9.459474e+001 1.037451e+002 -9.235255e+001 6.675781e+001 -1.456055e-002 -7.337761e+000
34046625 -1.982566e-002 -7.178247e+000 -9.798188e+001 9.427082e+001 -9.273629e+001 9.533572e+001 -1.492674e-002 -7.545260e+000
34984031.25 -2.064039e-002 -7.369649e+000 -1.001223e+002 1.446035e+002 -9.455704e+001 4.841539e+001 -1.530215e-002 -7.751778e+000
35921437.5 -2.111045e-002 -7.561246e+000 -9.238322e+001 7.223645e+001 -9.636877e+001 7.942393e+001 -1.491540e-002 -7.954899e+000
36858843.75 -2.161476e-002 -7.758653e+000 -9.701131e+001 9.543687e+001 -1.023844e+002 9.078586e+001 -1.663732e-002 -8.164149e+000
37796250 -2.188310e-002 -7.953248e+000 -9.302020e+001 9.715780e+001 -9.230598e+001 8.979060e+001 -1.734953e-002 -8.365442e+000
38733656.25 -2.228017e-002 -8.148273e+000 -9.625799e+001 9.993156e+001 -9.088969e+001 1.128592e+002 -1.684457e-002 -8.569565e+000
39671062.5 -2.264112e-002 -8.348246e+000 -9.890246e+001 4.273292e+001 -9.343028e+001 6.658507e+001 -1.656985e-002 -8.781069e+000
40608468.75 -2.766944e-002 -8.531766e+000 -1.054143e+002 1.289913e+002 -9.444328e+001 9.138383e+001 -2.153306e-002 -8.975289e+000
41545875 -2.769784e-002 -8.729159e+000 -9.868179e+001 5.612426e+001 -9.502608e+001 7.023202e+001 -2.094800e-002 -9.179313e+000
42483281.25 -2.927422e-002 -8.929792e+000 -9.242579e+001 1.037636e+002 -9.353543e+001 7.000856e+001 -2.226692e-002 -9.390929e+000
43420687.5 -2.894507e-002 -9.118731e+000 -9.290800e+001 5.965326e+001 -9.452470e+001 7.912892e+001 -2.144532e-002 -9.594420e+000
44358093.75 -2.956237e-002 -9.314974e+000 -9.566351e+001 7.759924e+001 -9.581714e+001 1.039765e+002 -2.165782e-002 -9.798407e+000
45295500 -3.036340e-002 -9.514846e+000 -9.378712e+001 7.851230e+001 -9.351556e+001 5.919842e+001 -2.202527e-002 -1.000120e+001
46232906.25 -3.136273e-002 -9.706754e+000 -9.637375e+001 9.887419e+001 -9.340511e+001 8.287098e+001 -2.155149e-002 -1.021351e+001
47170312.5 -3.205314e-002 -9.898407e+000 -9.156602e+001 7.294118e+001 -9.230405e+001 1.249613e+002 -2.247185e-002 -1.041772e+001
48107718.75 -3.212987e-002 -1.009679e+001 -9.219051e+001 6.467175e+001 -8.913344e+001 6.145197e+001 -2.216051e-002 -1.062028e+001
49045125 -3.262363e-002 -1.029577e+001 -9.562371e+001 6.831639e+001 -9.581052e+001 7.530374e+001 -2.184503e-002 -1.082834e+001
49982531.25 -3.335632e-002 -1.048948e+001 -9.098853e+001 7.806187e+001 -9.898591e+001 5.655405e+001 -2.212295e-002 -1.103957e+001
50919937.5 -3.384836e-002 -1.068681e+001 -9.123480e+001 7.142113e+001 -9.263254e+001 9.462229e+001 -2.189284e-002 -1.124279e+001
51857343.75 -3.454589e-002 -1.088353e+001 -9.378413e+001 8.887158e+001 -9.372749e+001 6.816601e+001 -2.294829e-002 -1.144974e+001
52794750 -3.580378e-002 -1.108190e+001 -9.798666e+001 6.929562e+001 -9.281137e+001 5.534907e+001 -2.153102e-002 -1.165633e+001
53732156.25 -3.513720e-002 -1.127772e+001 -9.114983e+001 7.488107e+001 -9.201431e+001 8.165500e+001 -2.200742e-002 -1.186112e+001
54669562.5 -3.598478e-002 -1.147268e+001 -8.950427e+001 8.458578e+001 -8.870154e+001 5.250919e+001 -2.245868e-002 -1.206996e+001
55606968.75 -3.646369e-002 -1.167100e+001 -9.230609e+001 9.540971e+001 -9.105278e+001 8.741038e+001 -2.262276e-002 -1.227627e+001
56544375 -3.697274e-002 -1.186744e+001 -9.406172e+001 8.556786e+001 -9.180933e+001 4.774170e+001 -2.254273e-002 -1.248024e+001
57481781.25 -3.753415e-002 -1.206579e+001 -9.154684e+001 6.388826e+001 -9.106530e+001 7.328739e+001 -2.201459e-002 -1.269142e+001
58419187.5 -3.803511e-002 -1.226022e+001 -9.191641e+001 6.158168e+001 -9.318616e+001 7.488674e+001 -2.222527e-002 -1.289704e+001
59356593.75 -3.875029e-002 -1.246008e+001 -9.823321e+001 6.551019e+001 -8.879353e+001 6.754231e+001 -2.232544e-002 -1.310169e+001
60294000 -3.891115e-002 -1.265922e+001 -9.304906e+001 7.223966e+001 -9.285201e+001 9.809611e+001 -2.210959e-002 -1.331203e+001
61231406.25 -3.914933e-002 -1.285673e+001 -9.799789e+001 4.684812e+001 -9.137675e+001 7.665412e+001 -2.233950e-002 -1.352129e+001
62168812.5 -4.005063e-002 -1.305465e+001 -9.779578e+001 8.590733e+001 -9.067242e+001 7.967559e+001 -2.198589e-002 -1.372960e+001
63106218.75 -4.052716e-002 -1.324872e+001 -9.852006e+001 5.085563e+001 -8.889378e+001 6.096115e+001 -2.240330e-002 -1.393596e+001
64043625 -4.019415e-002 -1.345107e+001 -9.134633e+001 6.784396e+001 -9.300761e+001 7.666039e+001 -2.185067e-002 -1.414481e+001
64981031.25 -4.066136e-002 -1.364946e+001 -9.226155e+001 7.067639e+001 -9.363038e+001 7.715915e+001 -2.186448e-002 -1.435330e+001
65918437.5 -4.203441e-002 -1.384492e+001 -9.211900e+001 6.086961e+001 -9.035976e+001 5.765137e+001 -2.241555e-002 -1.456264e+001
66855843.75 -4.257700e-002 -1.404359e+001 -9.245695e+001 8.273872e+001 -9.192673e+001 6.484172e+001 -2.169184e-002 -1.477286e+001
67793250 -4.244959e-002 -1.424366e+001 -9.222764e+001 8.068681e+001 -8.879933e+001 8.374397e+001 -2.199205e-002 -1.498100e+001
68730656.25 -4.342643e-002 -1.444369e+001 -9.417125e+001 7.729295e+001 -9.326998e+001 9.040263e+001 -2.174859e-002 -1.518762e+001
69668062.5 -4.356527e-002 -1.464088e+001 -9.038339e+001 6.496130e+001 -9.007831e+001 7.003978e+001 -2.256710e-002 -1.539872e+001
70605468.75 -4.424700e-002 -1.484443e+001 -9.006106e+001 7.959827e+001 -9.001528e+001 7.920072e+001 -2.232910e-002 -1.561364e+001
71542875 -4.448060e-002 -1.504133e+001 -9.347112e+001 8.423321e+001 -9.329333e+001 5.794078e+001 -2.197141e-002 -1.582363e+001
72480281.25 -4.515963e-002 -1.524211e+001 -8.933497e+001 8.384274e+001 -8.886459e+001 6.482755e+001 -2.235226e-002 -1.603572e+001
73417687.5 -4.581475e-002 -1.544291e+001 -9.261971e+001 7.660126e+001 -9.432920e+001 7.404012e+001 -2.288192e-002 -1.624221e+001
74355093.75 -4.625396e-002 -1.564462e+001 -9.252502e+001 5.682433e+001 -9.320272e+001 6.838026e+001 -2.219202e-002 -1.645706e+001
75292500 -4.742471e-002 -1.584206e+001 -9.042860e+001 6.980947e+001 -8.788442e+001 6.480894e+001 -2.268646e-002 -1.666904e+001
76229906.25 -4.783135e-002 -1.604588e+001 -8.990514e+001 6.765881e+001 -8.958105e+001 8.403705e+001 -2.283034e-002 -1.687953e+001
77167312.5 -4.887275e-002 -1.624486e+001 -9.337975e+001 7.148624e+001 -9.457241e+001 7.972800e+001 -2.288692e-002 -1.708940e+001
78104718.75 -4.925071e-002 -1.644283e+001 -9.341212e+001 5.893535e+001 -9.194373e+001 9.245586e+001 -2.353410e-002 -1.729840e+001
79042125 -5.001910e-002 -1.665062e+001 -9.235152e+001 1.070535e+002 -8.605084e+001 8.833882e+001 -2.360912e-002 -1.750976e+001
79979531.25 -5.100330e-002 -1.684435e+001 -8.771870e+001 7.469505e+001 -8.901174e+001 5.462743e+001 -2.362007e-002 -1.772317e+001
80916937.5 -5.142558e-002 -1.705069e+001 -8.913772e+001 5.122839e+001 -8.991169e+001 5.583728e+001 -2.399146e-002 -1.793701e+001
81854343.75 -5.233229e-002 -1.725021e+001 -8.837912e+001 7.594024e+001 -8.755110e+001 6.430758e+001 -2.380855e-002 -1.814326e+001
82791750 -5.294720e-002 -1.745052e+001 -9.239703e+001 6.736705e+001 -9.507241e+001 8.683163e+001 -2.503287e-002 -1.835627e+001
83729156.25 -5.385723e-002 -1.764634e+001 -8.712417e+001 4.131335e+001 -8.731416e+001 3.166546e+001 -2.481495e-002 -1.856659e+001
84666562.5 -5.393802e-002 -1.784904e+001 -9.020557e+001 7.889730e+001 -9.102923e+001 6.020940e+001 -2.480264e-002 -1.877508e+001
85603968.75 -5.507363e-002 -1.804632e+001 -9.673686e+001 1.112482e+002 -9.275792e+001 9.127455e+001 -2.552865e-002 -1.898582e+001
86541375 -5.630945e-002 -1.824521e+001 -9.205032e+001 6.358564e+001 -8.622699e+001 5.781637e+001 -2.560150e-002 -1.919611e+001
87478781.25 -5.601896e-002 -1.844561e+001 -8.825294e+001 7.807137e+001 -8.653650e+001 6.902122e+001 -2.590470e-002 -1.940891e+001
88416187.5 -5.700454e-002 -1.864743e+001 -8.941496e+001 7.898406e+001 -8.845171e+001 7.951740e+001 -2.579663e-002 -1.961620e+001
89353593.75 -5.828067e-002 -1.884450e+001 -9.208611e+001 2.024668e+001 -9.115493e+001 4.883401e+001 -2.661749e-002 -1.982877e+001
90291000 -5.930451e-002 -1.904371e+001 -9.070016e+001 6.299166e+001 -8.845618e+001 7.064446e+001 -2.726826e-002 -2.003593e+001
91228406.25 -5.984523e-002 -1.924421e+001 -8.720663e+001 8.265772e+001 -8.688770e+001 7.622254e+001 -2.769897e-002 -2.024783e+001
92165812.5 -6.057628e-002 -1.944143e+001 -8.774219e+001 6.611088e+001 -8.908564e+001 6.539318e+001 -2.725755e-002 -2.045717e+001
93103218.75 -6.232717e-002 -1.964090e+001 -8.855890e+001 6.993649e+001 -8.849469e+001 6.630218e+001 -2.766636e-002 -2.066722e+001
94040625 -6.283517e-002 -1.983980e+001 -8.977942e+001 1.135734e+002 -8.937321e+001 9.676804e+001 -2.865946e-002 -2.087672e+001
94978031.25 -6.371506e-002 -2.003617e+001 -8.844473e+001 3.271318e+001 -8.591621e+001 2.614517e+001 -2.918568e-002 -2.108261e+001
95915437.5 -6.449685e-002 -2.023574e+001 -8.746055e+001 6.345910e+001 -8.599043e+001 6.985210e+001 -2.919008e-002 -2.129205e+001
96852843.75 -6.483413e-002 -2.043128e+001 -9.254181e+001 8.892639e+001 -9.106371e+001 9.126219e+001 -3.059688e-002 -2.149861e+001
97790250 -6.580492e-002 -2.062543e+001 -8.973370e+001 4.439676e+001 -8.862463e+001 4.784869e+001 -3.015956e-002 -2.170852e+001
98727656.25 -6.656423e-002 -2.082545e+001 -8.660249e+001 6.956485e+001 -8.577534e+001 5.853344e+001 -3.189911e-002 -2.191869e+001
99665062.5 -6.711806e-002 -2.102053e+001 -8.761380e+001 5.627730e+001 -8.643859e+001 5.729218e+001 -3.149222e-002 -2.212055e+001
100602468.75 -6.822728e-002 -2.121612e+001 -9.124972e+001 6.313527e+001 -8.713863e+001 6.018174e+001 -3.209832e-002 -2.232844e+001
101539875 -6.914607e-002 -2.141311e+001 -8.649535e+001 5.997726e+001 -8.576228e+001 5.133495e+001 -3.238812e-002 -2.253891e+001
102477281.25 -6.963600e-002 -2.160479e+001 -8.752071e+001 5.960582e+001 -8.624952e+001 5.454572e+001 -3.244147e-002 -2.274569e+001
103414687.5 -7.055853e-002 -2.180218e+001 -9.471842e+001 6.674625e+001 -9.509404e+001 6.163519e+001 -3.349709e-002 -2.295516e+001
104352093.75 -7.226257e-002 -2.199571e+001 -8.834336e+001 6.762238e+001 -8.563893e+001 6.642569e+001 -3.422954e-002 -2.315847e+001
105289500 -7.234526e-002 -2.219052e+001 -8.993885e+001 7.537454e+001 -8.539074e+001 5.652454e+001 -3.512738e-002 -2.336055e+001
106226906.25 -7.323938e-002 -2.238231e+001 -9.094627e+001 6.675443e+001 -8.841521e+001 6.194120e+001 -3.500555e-002 -2.357246e+001
107164312.5 -7.452716e-002 -2.257756e+001 -8.320902e+001 3.561681e+001 -8.400732e+001 4.458904e+001 -3.558655e-002 -2.377962e+001
108101718.75 -7.530042e-002 -2.277210e+001 -9.079507e+001 7.196601e+001 -8.770431e+001 8.178168e+001 -3.653567e-002 -2.398189e+001
109039125 -7.558037e-002 -2.296363e+001 -9.219595e+001 8.979756e+001 -9.071091e+001 8.623990e+001 -3.629628e-002 -2.419098e+001
109976531.25 -7.599710e-002 -2.315803e+001 -8.846997e+001 6.067935e+001 -8.726900e+001 4.992990e+001 -3.703640e-002 -2.439265e+001
110913937.5 -7.638834e-002 -2.334783e+001 -8.863271e+001 5.508748e+001 -8.420732e+001 5.964054e+001 -3.695822e-002 -2.459665e+001
111851343.75 -7.761113e-002 -2.354256e+001 -8.607635e+001 7.644955e+001 -8.623885e+001 7.382397e+001 -3.765836e-002 -2.479738e+001
112788750 -7.844944e-002 -2.373519e+001 -8.592364e+001 6.871320e+001 -8.579329e+001 5.090110e+001 -3.836243e-002 -2.500451e+001
113726156.25 -7.863772e-002 -2.392727e+001 -8.704730e+001 5.357891e+001 -8.726013e+001 5.720735e+001 -3.840066e-002 -2.521059e+001
114663562.5 -7.902034e-002 -2.411837e+001 -8.913148e+001 6.122804e+001 -8.637759e+001 4.677356e+001 -3.909629e-002 -2.541664e+001
115600968.75 -8.009992e-002 -2.430696e+001 -8.838606e+001 4.925156e+001 -8.836884e+001 4.527441e+001 -3.893469e-002 -2.562324e+001
116538375 -8.024161e-002 -2.449745e+001 -9.251101e+001 8.340815e+001 -8.571540e+001 9.038667e+001 -4.018102e-002 -2.582528e+001
117475781.25 -8.072607e-002 -2.468555e+001 -9.175276e+001 8.431235e+001 -8.739697e+001 1.010693e+002 -3.988434e-002 -2.602466e+001
118413187.5 -8.130915e-002 -2.487677e+001 -8.862185e+001 6.239318e+001 -8.705991e+001 5.266511e+001 -3.984440e-002 -2.622722e+001
119350593.75 -8.167010e-002 -2.506907e+001 -8.531459e+001 6.348278e+001 -8.648826e+001 6.547661e+001 -4.138983e-002 -2.643080e+001
120288000 -8.227639e-002 -2.525564e+001 -8.902835e+001 7.360307e+001 -8.706310e+001 6.621057e+001 -4.044342e-002 -2.663183e+001
121225406.25 -8.237211e-002 -2.544748e+001 -8.839222e+001 6.052788e+001 -8.411023e+001 4.885123e+001 -4.125262e-002 -2.683284e+001
122162812.5 -8.246619e-002 -2.563612e+001 -8.537880e+001 8.300822e+001 -8.508865e+001 7.359712e+001 -4.111696e-002 -2.703835e+001
123100218.75 -8.335703e-002 -2.582495e+001 -8.738618e+001 5.368348e+001 -8.647757e+001 6.929644e+001 -4.028336e-002 -2.723923e+001
124037625 -8.341584e-002 -2.601227e+001 -8.650985e+001 5.809279e+001 -8.793855e+001 7.013922e+001 -4.087509e-002 -2.744027e+001
124975031.25 -8.298128e-002 -2.620473e+001 -8.401389e+001 5.612845e+001 -8.368900e+001 5.886485e+001 -4.041009e-002 -2.764499e+001
125912437.5 -8.379301e-002 -2.639103e+001 -8.597231e+001 9.379249e+001 -8.819292e+001 8.119740e+001 -4.080708e-002 -2.784603e+001
126849843.75 -8.369846e-002 -2.658296e+001 -8.702401e+001 6.981977e+001 -8.657925e+001 5.658660e+001 -3.993938e-002 -2.805372e+001
127787250 -8.332920e-002 -2.677264e+001 -8.711674e+001 7.319199e+001 -8.545864e+001 6.595933e+001 -4.071277e-002 -2.824844e+001
128724656.25 -8.314347e-002 -2.696215e+001 -8.470075e+001 6.878539e+001 -8.660730e+001 7.157556e+001 -3.924831e-002 -2.845665e+001
129662062.5 -8.276034e-002 -2.715413e+001 -8.789515e+001 3.463131e+001 -8.583985e+001 4.502039e+001 -3.935053e-002 -2.866126e+001
130599468.75 -8.296926e-002 -2.734612e+001 -8.657588e+001 6.368584e+001 -8.723248e+001 7.813484e+001 -3.845086e-002 -2.886634e+001
131536875 -8.186866e-002 -2.753188e+001 -8.810401e+001 6.701753e+001 -8.447531e+001 5.840440e+001 -3.832836e-002 -2.906881e+001
132474281.25 -8.279750e-002 -2.772407e+001 -8.644441e+001 6.107477e+001 -8.610242e+001 6.382378e+001 -3.830745e-002 -2.927264e+001
133411687.5 -8.237898e-002 -2.792069e+001 -8.515064e+001 8.117149e+001 -8.182677e+001 7.370205e+001 -3.791116e-002 -2.948219e+001
134349093.75 -8.157447e-002 -2.810929e+001 -8.622619e+001 5.501522e+001 -8.600150e+001 3.825173e+001 -3.753040e-002 -2.968478e+001
135286500 -8.220747e-002 -2.830171e+001 -8.150130e+001 -1.097200e+001 -8.013124e+001 -1.512163e+001 -3.699818e-002 -2.988807e+001
136223906.25 -8.114967e-002 -2.849295e+001 -8.793069e+001 4.114033e+001 -8.542897e+001 4.282440e+001 -3.714773e-002 -3.009417e+001
137161312.5 -8.144604e-002 -2.867828e+001 -8.555160e+001 1.221155e+002 -8.425615e+001 1.382166e+002 -3.670052e-002 -3.030227e+001
138098718.75 -8.018953e-002 -2.887568e+001 -8.257278e+001 6.127118e+001 -8.125666e+001 5.316093e+001 -3.618519e-002 -3.050514e+001
139036125 -7.927751e-002 -2.907085e+001 -8.585616e+001 6.210929e+001 -8.457274e+001 6.159710e+001 -3.495021e-002 -3.071855e+001
139973531.25 -8.020642e-002 -2.926147e+001 -8.940628e+001 1.121785e+002 -8.725101e+001 8.068507e+001 -3.640046e-002 -3.092078e+001
140910937.5 -7.805058e-002 -2.945848e+001 -8.636642e+001 5.651101e+001 -8.355510e+001 4.918320e+001 -3.572611e-002 -3.113220e+001
141848343.75 -7.823984e-002 -2.965398e+001 -8.269761e+001 6.909834e+001 -8.375692e+001 6.549339e+001 -3.659540e-002 -3.133683e+001
