!Agilent Technologies,N5230A,US44240068,A.07.50.67
!Agilent N5230A: A.07.50.67
!Date: Wednesday, November 10, 2021 18:26:22
!Correction: S11(Full 2 Port(1,2)) 
!S21(Full 2 Port(1,2)) 
!S12(Full 2 Port(1,2)) 
!S22(Full 2 Port(1,2)) 
!S2P File: Measurements: S11, S21, S12, S22:
# Hz S  dB   R 50
160000000 -6.703199e-002 -3.337035e+001 -8.556325e+001 3.570032e+000 -8.574119e+001 1.294404e+001 -3.516682e-002 -3.528841e+001
160009375 -6.633315e-002 -3.337299e+001 -8.605339e+001 2.095035e+001 -8.558625e+001 1.657166e+001 -3.509172e-002 -3.528560e+001
160018750 -6.634545e-002 -3.337437e+001 -8.496244e+001 9.135758e+000 -8.545663e+001 1.135991e+001 -3.478774e-002 -3.528930e+001
160028125 -6.606158e-002 -3.337856e+001 -9.102383e+001 2.848446e+001 -8.586521e+001 2.429865e+001 -3.457879e-002 -3.528984e+001
160037500 -6.572633e-002 -3.337925e+001 -8.827054e+001 1.937807e+001 -8.681774e+001 1.862824e+001 -3.472676e-002 -3.529382e+001
160046875 -6.605431e-002 -3.338187e+001 -8.908492e+001 1.110461e+001 -8.599465e+001 1.945435e+001 -3.470814e-002 -3.529485e+001
160056250 -6.615965e-002 -3.338259e+001 -8.676562e+001 2.375288e+001 -8.567328e+001 1.522543e+001 -3.450522e-002 -3.529861e+001
160065625 -6.611770e-002 -3.338637e+001 -8.861308e+001 2.650408e+001 -8.692686e+001 2.850760e+001 -3.455239e-002 -3.530030e+001
160075000 -6.578220e-002 -3.338766e+001 -9.187356e+001 2.529845e+001 -9.020342e+001 3.029798e+001 -3.447995e-002 -3.530099e+001
160084375 -6.606390e-002 -3.339001e+001 -8.752205e+001 3.630638e+001 -8.701070e+001 2.695234e+001 -3.480155e-002 -3.530521e+001
160093750 -6.562314e-002 -3.339362e+001 -9.049208e+001 4.111869e+001 -8.741738e+001 3.517287e+001 -3.437008e-002 -3.530406e+001
160103125 -6.582879e-002 -3.339479e+001 -8.958919e+001 3.915908e+001 -8.957700e+001 4.534443e+001 -3.429083e-002 -3.530745e+001
160112500 -6.532614e-002 -3.339791e+001 -8.994884e+001 4.116315e+001 -8.919004e+001 2.945217e+001 -3.426686e-002 -3.530907e+001
160121875 -6.553118e-002 -3.339908e+001 -9.071609e+001 5.326773e+001 -8.808341e+001 4.070556e+001 -3.406423e-002 -3.531042e+001
160131250 -6.523192e-002 -3.340088e+001 -8.882827e+001 2.814161e+001 -9.056457e+001 3.290274e+001 -3.394060e-002 -3.531211e+001
160140625 -6.569559e-002 -3.340409e+001 -9.028161e+001 4.517959e+001 -9.007345e+001 4.649757e+001 -3.403946e-002 -3.531622e+001
160150000 -6.564450e-002 -3.340579e+001 -9.038293e+001 5.880385e+001 -9.093571e+001 4.059114e+001 -3.433296e-002 -3.531772e+001
160159375 -6.520770e-002 -3.340789e+001 -9.059308e+001 4.236806e+001 -9.012865e+001 5.173274e+001 -3.385662e-002 -3.531746e+001
160168750 -6.604652e-002 -3.340939e+001 -9.154083e+001 4.518770e+001 -9.166607e+001 7.528595e+001 -3.438845e-002 -3.532238e+001
160178125 -6.528752e-002 -3.341310e+001 -9.012491e+001 7.563399e+001 -8.919194e+001 6.871714e+001 -3.435297e-002 -3.532331e+001
160187500 -6.552127e-002 -3.341462e+001 -9.166543e+001 6.814793e+001 -9.048120e+001 5.910648e+001 -3.416758e-002 -3.532750e+001
160196875 -6.530116e-002 -3.341654e+001 -9.223504e+001 8.221778e+001 -8.844720e+001 7.341671e+001 -3.424196e-002 -3.532814e+001
160206250 -6.523364e-002 -3.341983e+001 -8.985004e+001 8.124088e+001 -8.964146e+001 8.062362e+001 -3.390229e-002 -3.533157e+001
160215625 -6.524077e-002 -3.342068e+001 -9.108385e+001 8.860586e+001 -8.876579e+001 6.749620e+001 -3.444481e-002 -3.533234e+001
160225000 -6.500553e-002 -3.342333e+001 -8.858701e+001 9.458419e+001 -8.647609e+001 8.628255e+001 -3.453416e-002 -3.533355e+001
160234375 -6.488556e-002 -3.342575e+001 -8.895616e+001 9.215651e+001 -8.911034e+001 7.856002e+001 -3.411321e-002 -3.533844e+001
160243750 -6.521174e-002 -3.342775e+001 -8.811974e+001 8.988654e+001 -8.656054e+001 9.679117e+001 -3.399678e-002 -3.533730e+001
160253125 -6.523762e-002 -3.342982e+001 -8.718487e+001 1.019270e+002 -8.579887e+001 1.010153e+002 -3.440560e-002 -3.534169e+001
160262500 -6.524575e-002 -3.343111e+001 -8.646371e+001 9.920452e+001 -8.619181e+001 9.922388e+001 -3.431916e-002 -3.534243e+001
160271875 -6.507143e-002 -3.343368e+001 -8.664343e+001 9.054999e+001 -8.653256e+001 9.716103e+001 -3.442936e-002 -3.534595e+001
160281250 -6.507140e-002 -3.343578e+001 -8.529069e+001 1.057814e+002 -8.428705e+001 9.326914e+001 -3.412052e-002 -3.534627e+001
160290625 -6.509854e-002 -3.343807e+001 -8.496758e+001 9.487548e+001 -8.495589e+001 9.104251e+001 -3.427719e-002 -3.534879e+001
160300000 -6.520359e-002 -3.344093e+001 -8.556163e+001 1.007288e+002 -8.428057e+001 9.431478e+001 -3.436671e-002 -3.535129e+001
160309375 -6.502082e-002 -3.344285e+001 -8.353873e+001 9.603688e+001 -8.318353e+001 8.717822e+001 -3.413647e-002 -3.535209e+001
160318750 -6.498856e-002 -3.344506e+001 -8.362775e+001 9.901945e+001 -8.335931e+001 9.153350e+001 -3.422926e-002 -3.535378e+001
160328125 -6.499413e-002 -3.344900e+001 -8.330264e+001 1.012467e+002 -8.325143e+001 9.171587e+001 -3.430736e-002 -3.535697e+001
160337500 -6.481301e-002 -3.344811e+001 -8.242603e+001 9.573054e+001 -8.246364e+001 9.023619e+001 -3.434395e-002 -3.535793e+001
160346875 -6.501089e-002 -3.345263e+001 -8.217561e+001 9.516261e+001 -8.143736e+001 9.659066e+001 -3.428112e-002 -3.536053e+001
160356250 -6.490704e-002 -3.345497e+001 -8.183434e+001 9.029862e+001 -8.100714e+001 8.922108e+001 -3.418275e-002 -3.536180e+001
160365625 -6.510451e-002 -3.345638e+001 -8.210059e+001 9.524754e+001 -8.113063e+001 9.218610e+001 -3.444584e-002 -3.536710e+001
160375000 -6.539728e-002 -3.345840e+001 -8.119197e+001 9.431463e+001 -8.078303e+001 8.472305e+001 -3.423861e-002 -3.536768e+001
160384375 -6.476309e-002 -3.346062e+001 -8.102824e+001 9.036306e+001 -8.061931e+001 9.145430e+001 -3.436029e-002 -3.537104e+001
160393750 -6.519466e-002 -3.346233e+001 -8.014540e+001 9.140211e+001 -8.032304e+001 8.822834e+001 -3.414631e-002 -3.537307e+001
160403125 -6.523727e-002 -3.346437e+001 -8.041661e+001 8.671751e+001 -8.015271e+001 8.701015e+001 -3.404691e-002 -3.537304e+001
160412500 -6.542173e-002 -3.346779e+001 -7.979721e+001 8.508097e+001 -7.885439e+001 8.351854e+001 -3.414074e-002 -3.537484e+001
160421875 -6.548780e-002 -3.347144e+001 -8.023357e+001 8.454855e+001 -7.956379e+001 8.296087e+001 -3.445919e-002 -3.537903e+001
160431250 -6.546962e-002 -3.347153e+001 -7.987022e+001 8.566628e+001 -7.900507e+001 8.184561e+001 -3.419720e-002 -3.537947e+001
160440625 -6.525137e-002 -3.347263e+001 -7.952189e+001 8.431472e+001 -7.940775e+001 8.116682e+001 -3.435696e-002 -3.537947e+001
160450000 -6.533956e-002 -3.347480e+001 -7.947106e+001 8.178586e+001 -7.875777e+001 8.428790e+001 -3.400302e-002 -3.538464e+001
160459375 -6.519549e-002 -3.347715e+001 -7.946326e+001 8.122517e+001 -7.881505e+001 7.606915e+001 -3.429470e-002 -3.538620e+001
160468750 -6.527639e-002 -3.348136e+001 -7.857256e+001 7.803275e+001 -7.768056e+001 7.327256e+001 -3.444842e-002 -3.538742e+001
160478125 -6.488885e-002 -3.348037e+001 -7.893186e+001 7.529249e+001 -7.773627e+001 7.124255e+001 -3.416078e-002 -3.538795e+001
160487500 -6.545570e-002 -3.348435e+001 -7.914297e+001 7.627477e+001 -7.795072e+001 7.460143e+001 -3.448115e-002 -3.539185e+001
160496875 -6.574374e-002 -3.348433e+001 -7.842094e+001 7.346561e+001 -7.838975e+001 7.163478e+001 -3.392302e-002 -3.539511e+001
160506250 -6.513349e-002 -3.348726e+001 -7.879044e+001 7.075727e+001 -7.803046e+001 6.945612e+001 -3.396779e-002 -3.539529e+001
160515625 -6.572016e-002 -3.348783e+001 -7.836504e+001 6.787765e+001 -7.782339e+001 6.595677e+001 -3.395902e-002 -3.539768e+001
160525000 -6.549814e-002 -3.348956e+001 -7.792483e+001 6.855653e+001 -7.789900e+001 6.119376e+001 -3.438253e-002 -3.540253e+001
160534375 -6.553504e-002 -3.349343e+001 -7.899675e+001 6.469814e+001 -7.744893e+001 6.633492e+001 -3.417223e-002 -3.540162e+001
160543750 -6.543818e-002 -3.349358e+001 -7.799011e+001 6.918662e+001 -7.742641e+001 6.272049e+001 -3.457741e-002 -3.540173e+001
160553125 -6.535504e-002 -3.349562e+001 -7.784839e+001 6.477543e+001 -7.743566e+001 6.122328e+001 -3.416507e-002 -3.540752e+001
160562500 -6.555849e-002 -3.350055e+001 -7.812309e+001 6.067484e+001 -7.739523e+001 5.645507e+001 -3.410419e-002 -3.540724e+001
160571875 -6.535558e-002 -3.350329e+001 -7.778438e+001 6.105200e+001 -7.694364e+001 5.677090e+001 -3.417839e-002 -3.540956e+001
160581250 -6.537606e-002 -3.350375e+001 -7.812780e+001 6.095267e+001 -7.706535e+001 5.532607e+001 -3.411925e-002 -3.541210e+001
160590625 -6.526409e-002 -3.350406e+001 -7.796518e+001 5.742570e+001 -7.734676e+001 5.343564e+001 -3.419042e-002 -3.541265e+001
160600000 -6.542604e-002 -3.350836e+001 -7.805176e+001 5.413428e+001 -7.693078e+001 5.464990e+001 -3.453500e-002 -3.541650e+001
160609375 -6.535485e-002 -3.350774e+001 -7.749694e+001 5.334564e+001 -7.721069e+001 5.215008e+001 -3.420720e-002 -3.541780e+001
160618750 -6.527167e-002 -3.351077e+001 -7.722398e+001 5.187894e+001 -7.678194e+001 5.030387e+001 -3.413875e-002 -3.542191e+001
160628125 -6.549520e-002 -3.351323e+001 -7.718445e+001 5.184952e+001 -7.742726e+001 4.519165e+001 -3.415669e-002 -3.542448e+001
160637500 -6.539354e-002 -3.351677e+001 -7.705039e+001 5.142524e+001 -7.669787e+001 4.453786e+001 -3.421394e-002 -3.542601e+001
160646875 -6.543601e-002 -3.351759e+001 -7.802588e+001 4.891147e+001 -7.634746e+001 4.704875e+001 -3.384778e-002 -3.542758e+001
160656250 -6.550662e-002 -3.351984e+001 -7.670745e+001 4.706981e+001 -7.642513e+001 4.275725e+001 -3.467818e-002 -3.542934e+001
160665625 -6.567455e-002 -3.352298e+001 -7.731041e+001 4.429507e+001 -7.695560e+001 4.367440e+001 -3.435427e-002 -3.543134e+001
160675000 -6.542365e-002 -3.352290e+001 -7.699091e+001 3.924914e+001 -7.669077e+001 3.890710e+001 -3.434641e-002 -3.543392e+001
160684375 -6.542307e-002 -3.352622e+001 -7.658117e+001 3.897595e+001 -7.654726e+001 4.133378e+001 -3.425407e-002 -3.543543e+001
160693750 -6.528551e-002 -3.352829e+001 -7.783635e+001 3.982990e+001 -7.643263e+001 3.483428e+001 -3.420395e-002 -3.543735e+001
160703125 -6.534244e-002 -3.353189e+001 -7.707582e+001 3.913397e+001 -7.644831e+001 3.767237e+001 -3.421953e-002 -3.544034e+001
160712500 -6.536654e-002 -3.353243e+001 -7.744428e+001 3.510721e+001 -7.685664e+001 3.401914e+001 -3.440471e-002 -3.544314e+001
160721875 -6.539937e-002 -3.353520e+001 -7.719527e+001 3.343017e+001 -7.633700e+001 3.596909e+001 -3.419587e-002 -3.544572e+001
160731250 -6.522462e-002 -3.353809e+001 -7.747816e+001 3.333944e+001 -7.691686e+001 3.144251e+001 -3.444198e-002 -3.544577e+001
160740625 -6.557823e-002 -3.353997e+001 -7.732072e+001 3.218997e+001 -7.655954e+001 3.153514e+001 -3.410232e-002 -3.544974e+001
160750000 -6.528633e-002 -3.354305e+001 -7.746796e+001 2.767944e+001 -7.664706e+001 2.928029e+001 -3.445733e-002 -3.545065e+001
160759375 -6.502620e-002 -3.354229e+001 -7.715120e+001 2.658860e+001 -7.720786e+001 2.192525e+001 -3.423030e-002 -3.545372e+001
160768750 -6.525213e-002 -3.354216e+001 -7.742400e+001 2.636670e+001 -7.647372e+001 2.329687e+001 -3.405556e-002 -3.545621e+001
160778125 -6.549311e-002 -3.354654e+001 -7.810593e+001 2.314624e+001 -7.706865e+001 2.130237e+001 -3.414983e-002 -3.545680e+001
160787500 -6.582031e-002 -3.354982e+001 -7.781226e+001 2.195523e+001 -7.725948e+001 1.655159e+001 -3.426113e-002 -3.546091e+001
160796875 -6.565405e-002 -3.355017e+001 -7.776376e+001 2.098275e+001 -7.679128e+001 1.668018e+001 -3.439600e-002 -3.546066e+001
160806250 -6.544378e-002 -3.355161e+001 -7.784643e+001 1.787310e+001 -7.694769e+001 1.480616e+001 -3.419449e-002 -3.546214e+001
160815625 -6.540824e-002 -3.355135e+001 -7.777798e+001 1.591301e+001 -7.717385e+001 1.711062e+001 -3.438739e-002 -3.546606e+001
160825000 -6.550466e-002 -3.355552e+001 -7.827489e+001 1.664568e+001 -7.764432e+001 1.347611e+001 -3.426572e-002 -3.546908e+001
160834375 -6.558926e-002 -3.355624e+001 -7.775625e+001 1.129459e+001 -7.711326e+001 1.103533e+001 -3.403619e-002 -3.547182e+001
160843750 -6.557708e-002 -3.356073e+001 -7.832897e+001 1.112464e+001 -7.742618e+001 6.311528e+000 -3.430511e-002 -3.547385e+001
160853125 -6.538769e-002 -3.356070e+001 -7.806747e+001 1.026396e+001 -7.746397e+001 6.991259e+000 -3.431120e-002 -3.547271e+001
160862500 -6.541669e-002 -3.356348e+001 -7.876814e+001 7.657320e+000 -7.778727e+001 8.077468e+000 -3.438751e-002 -3.547787e+001
160871875 -6.592129e-002 -3.356162e+001 -7.874107e+001 1.640397e+000 -7.860820e+001 1.585023e+000 -3.427145e-002 -3.547905e+001
160881250 -6.525282e-002 -3.356621e+001 -7.933475e+001 4.228573e+000 -7.886079e+001 2.731854e+000 -3.461251e-002 -3.547808e+001
160890625 -6.543767e-002 -3.356519e+001 -7.924069e+001 9.552903e-001 -7.770854e+001 3.890112e+000 -3.459740e-002 -3.548288e+001
160900000 -6.538392e-002 -3.356943e+001 -7.892755e+001 -2.991089e+000 -7.950650e+001 -1.456146e+000 -3.407321e-002 -3.548399e+001
160909375 -6.593098e-002 -3.357137e+001 -7.980513e+001 -2.983320e+000 -7.926054e+001 -5.639971e+000 -3.417876e-002 -3.548694e+001
160918750 -6.586174e-002 -3.357528e+001 -8.020722e+001 -1.931468e+000 -7.947192e+001 -7.498869e+000 -3.447481e-002 -3.548774e+001
160928125 -6.552945e-002 -3.357543e+001 -8.003630e+001 1.165150e+000 -7.927190e+001 -7.716644e+000 -3.433831e-002 -3.549105e+001
160937500 -6.551504e-002 -3.357851e+001 -8.087231e+001 -1.002680e+001 -7.954753e+001 -1.151928e+001 -3.443968e-002 -3.549332e+001
160946875 -6.527308e-002 -3.357784e+001 -8.073447e+001 -9.244218e+000 -7.973561e+001 -1.000689e+001 -3.474270e-002 -3.549595e+001
160956250 -6.554329e-002 -3.358010e+001 -8.145422e+001 -6.371322e+000 -8.079556e+001 -1.615352e+001 -3.425325e-002 -3.549576e+001
160965625 -6.524487e-002 -3.358432e+001 -8.145207e+001 -9.018925e+000 -8.041924e+001 -1.949821e+001 -3.425436e-002 -3.550059e+001
160975000 -6.527739e-002 -3.358473e+001 -8.073941e+001 -1.174167e+001 -8.079922e+001 -1.771278e+001 -3.390913e-002 -3.550079e+001
160984375 -6.513791e-002 -3.358731e+001 -8.235725e+001 -1.729113e+001 -8.050864e+001 -1.418765e+001 -3.414273e-002 -3.550477e+001
160993750 -6.508236e-002 -3.358841e+001 -8.170757e+001 -1.943672e+001 -8.208368e+001 -1.674431e+001 -3.404056e-002 -3.550781e+001
161003125 -6.519724e-002 -3.359063e+001 -8.273845e+001 -1.881787e+001 -8.220676e+001 -2.498839e+001 -3.427878e-002 -3.550991e+001
161012500 -6.490093e-002 -3.359275e+001 -8.379751e+001 -1.526263e+001 -8.225414e+001 -2.496956e+001 -3.437518e-002 -3.550862e+001
161021875 -6.526777e-002 -3.359483e+001 -8.442207e+001 -2.368599e+001 -8.265578e+001 -2.102826e+001 -3.388219e-002 -3.551359e+001
161031250 -6.508976e-002 -3.359690e+001 -8.453429e+001 -1.986652e+001 -8.328690e+001 -2.562570e+001 -3.398181e-002 -3.551640e+001
161040625 -6.500900e-002 -3.359793e+001 -8.452343e+001 -2.189534e+001 -8.390477e+001 -2.485061e+001 -3.400036e-002 -3.551531e+001
161050000 -6.514893e-002 -3.360051e+001 -8.513839e+001 -3.266170e+001 -8.390561e+001 -1.723235e+001 -3.400899e-002 -3.551842e+001
161059375 -6.487847e-002 -3.360454e+001 -8.447856e+001 -2.733306e+001 -8.371703e+001 -2.565998e+001 -3.410926e-002 -3.552169e+001
161068750 -6.486291e-002 -3.360416e+001 -8.464829e+001 -3.506041e+001 -8.440350e+001 -1.934244e+001 -3.459164e-002 -3.552396e+001
161078125 -6.467823e-002 -3.360572e+001 -8.581738e+001 -3.330336e+001 -8.717583e+001 -3.714521e+001 -3.405858e-002 -3.552351e+001
161087500 -6.457762e-002 -3.360802e+001 -8.721616e+001 -3.844184e+001 -8.637356e+001 -2.567583e+001 -3.403506e-002 -3.552497e+001
161096875 -6.491738e-002 -3.361047e+001 -8.802437e+001 -3.752185e+001 -8.729600e+001 -3.231038e+001 -3.425255e-002 -3.553061e+001
161106250 -6.507085e-002 -3.361312e+001 -8.929282e+001 -3.767759e+001 -8.821423e+001 -3.765647e+001 -3.424878e-002 -3.553307e+001
161115625 -6.459696e-002 -3.361404e+001 -8.948684e+001 -3.896480e+001 -8.848839e+001 -3.515528e+001 -3.383961e-002 -3.553286e+001
161125000 -6.505184e-002 -3.361501e+001 -9.207229e+001 -3.269748e+001 -8.850182e+001 -4.153947e+001 -3.393099e-002 -3.553650e+001
161134375 -6.469920e-002 -3.361906e+001 -9.019911e+001 -4.237928e+001 -9.055323e+001 -3.884534e+001 -3.405310e-002 -3.553934e+001
161143750 -6.472301e-002 -3.362110e+001 -9.266377e+001 -4.181171e+001 -8.850623e+001 -4.554934e+001 -3.424589e-002 -3.554103e+001
161153125 -6.444287e-002 -3.362226e+001 -9.314333e+001 -3.128245e+001 -9.227400e+001 -2.859776e+001 -3.411326e-002 -3.554164e+001
161162500 -6.498341e-002 -3.362431e+001 -9.307180e+001 -6.855700e+001 -9.210660e+001 -4.173820e+001 -3.405113e-002 -3.554645e+001
161171875 -6.510734e-002 -3.362741e+001 -9.609597e+001 -6.748505e+001 -9.332214e+001 -3.954669e+001 -3.415191e-002 -3.554646e+001
161181250 -6.473309e-002 -3.363011e+001 -1.005262e+002 -3.221368e+001 -9.312622e+001 -4.373888e+001 -3.426656e-002 -3.554775e+001
161190625 -6.465165e-002 -3.363018e+001 -9.373262e+001 -1.052256e+001 -9.834465e+001 -5.287357e+001 -3.409902e-002 -3.555140e+001
161200000 -6.466147e-002 -3.363100e+001 -1.038089e+002 -3.781630e+001 -9.461859e+001 -2.763229e+001 -3.427593e-002 -3.555437e+001
161209375 -6.438142e-002 -3.363591e+001 -1.108474e+002 7.361476e+001 -9.441505e+001 3.144569e+000 -3.411010e-002 -3.555515e+001
161218750 -6.477203e-002 -3.363711e+001 -1.078745e+002 -1.548989e+002 -1.107396e+002 -5.613055e+001 -3.401818e-002 -3.555566e+001
161228125 -6.424785e-002 -3.363865e+001 -1.056393e+002 1.380163e+002 -1.047609e+002 4.123769e+001 -3.410919e-002 -3.555872e+001
161237500 -6.454224e-002 -3.364087e+001 -1.003502e+002 1.054520e+002 -1.142273e+002 -1.072234e+002 -3.423935e-002 -3.556250e+001
161246875 -6.480740e-002 -3.364084e+001 -1.025251e+002 3.642919e+001 -1.039549e+002 2.460312e+001 -3.398229e-002 -3.556384e+001
161256250 -6.501308e-002 -3.364518e+001 -1.050645e+002 9.299751e+001 -9.780559e+001 1.059477e+002 -3.431066e-002 -3.556417e+001
161265625 -6.464503e-002 -3.364746e+001 -1.068264e+002 3.704200e+001 -1.000661e+002 1.425040e+002 -3.439837e-002 -3.556690e+001
161275000 -6.453474e-002 -3.364828e+001 -9.678407e+001 1.192390e+002 -1.018956e+002 8.788978e+001 -3.421780e-002 -3.556881e+001
161284375 -6.452114e-002 -3.365097e+001 -9.332417e+001 9.113641e+001 -9.851416e+001 8.810452e+001 -3.423218e-002 -3.557085e+001
161293750 -6.472492e-002 -3.365055e+001 -9.413790e+001 1.081795e+002 -9.414854e+001 8.743003e+001 -3.434169e-002 -3.557452e+001
161303125 -6.446000e-002 -3.365442e+001 -9.540601e+001 9.048343e+001 -9.403681e+001 1.038113e+002 -3.424524e-002 -3.557654e+001
161312500 -6.439104e-002 -3.365329e+001 -9.489948e+001 1.120741e+002 -9.207831e+001 1.076363e+002 -3.432382e-002 -3.557625e+001
161321875 -6.435127e-002 -3.365823e+001 -9.499496e+001 1.063247e+002 -9.132777e+001 8.386916e+001 -3.415744e-002 -3.557941e+001
161331250 -6.443378e-002 -3.365881e+001 -9.393090e+001 1.068639e+002 -9.071487e+001 9.353992e+001 -3.394045e-002 -3.558125e+001
161340625 -6.431873e-002 -3.366199e+001 -9.047247e+001 1.006578e+002 -9.194002e+001 9.460597e+001 -3.403828e-002 -3.558564e+001
161350000 -6.417654e-002 -3.366215e+001 -9.198016e+001 9.311921e+001 -8.873497e+001 1.052243e+002 -3.410054e-002 -3.558683e+001
161359375 -6.426480e-002 -3.366653e+001 -9.001230e+001 1.122513e+002 -8.919894e+001 1.154928e+002 -3.407224e-002 -3.558792e+001
161368750 -6.431370e-002 -3.366674e+001 -9.206960e+001 1.055641e+002 -8.919862e+001 8.278100e+001 -3.438950e-002 -3.559063e+001
161378125 -6.419853e-002 -3.367145e+001 -8.798376e+001 1.102637e+002 -8.918155e+001 1.032962e+002 -3.459690e-002 -3.559216e+001
161387500 -6.404554e-002 -3.367270e+001 -8.978249e+001 9.737391e+001 -8.845154e+001 9.043646e+001 -3.429582e-002 -3.559734e+001
161396875 -6.440756e-002 -3.367469e+001 -8.908517e+001 8.868148e+001 -8.976479e+001 7.921568e+001 -3.411238e-002 -3.559660e+001
161406250 -6.396420e-002 -3.367492e+001 -8.867870e+001 9.850990e+001 -8.771315e+001 8.203012e+001 -3.419766e-002 -3.560016e+001
161415625 -6.439064e-002 -3.367928e+001 -8.918143e+001 9.843941e+001 -9.148620e+001 9.818397e+001 -3.417761e-002 -3.560013e+001
161425000 -6.410089e-002 -3.367899e+001 -8.816724e+001 1.143536e+002 -8.705230e+001 8.655202e+001 -3.371962e-002 -3.560200e+001
